(1790667208.366781) can0 004#FFFFFFFFFFFFFFFD
(1790667208.366831) can0 005#FFFFFFFFFFFFFFFD
(1790667208.366831) can0 006#FFFFFFFFFFFFFFFD
(1790667208.366847) can0 001#FFFFFFFFFFFFFFFD
(1790667208.366887) can0 002#FFFFFFFFFFFFFFFD
(1790667208.366941) can0 003#FFFFFFFFFFFFFFFD
(1790667208.366943) can1 004#FFFFFFFFFFFFFFFD
(1790667208.366942) can0 004#8000800000000800
(1790667208.366971) can0 005#8000800000000800
(1790667208.367021) can0 006#8000800000000800
(1790667208.367022) can0 001#8000800000000800
(1790667208.367023) can0 002#8000800000000800
(1790667208.367100) can1 005#FFFFFFFFFFFFFFFD
(1790667208.367048) can0 003#8000800000000800
(1790667208.367172) can1 006#FFFFFFFFFFFFFFFD
(1790667208.367221) can1 014#0481877FF7FB2D16
(1790667208.367252) can1 001#FFFFFFFFFFFFFFFD
(1790667208.367340) can1 002#FFFFFFFFFFFFFFFD
(1790667208.367446) can1 003#FFFFFFFFFFFFFFFD
(1790667208.367527) can1 004#8000800000000800
(1790667208.367573) can1 005#8000800000000800
(1790667208.367655) can1 006#8000800000000800
(1790667208.367725) can1 001#8000800000000800
(1790667208.367814) can1 002#8000800000000800
(1790667208.367894) can1 003#8000800000000800
(1790667208.368382) can0 011#0180427FF80E211D
(1790667208.368486) can0 011#0180427FF80B211D
(1790667208.368596) can0 012#02821F7FF8032F1F
(1790667208.368650) can1 011#01802D7FF7F9221C
(1790667208.368725) can0 012#02821F7FF8032F1F
(1790667208.368777) can1 011#01802D7FF7F9221C
(1790667208.368855) can0 013#0380137FF7FD221B
(1790667208.368894) can1 012#0280017FF7FE201B
(1790667208.368983) can0 004#8000800000000800
(1790667208.368985) can0 005#8000800000000800
(1790667208.369020) can0 006#8000800000000800
(1790667208.369020) can0 001#8000800000000800
(1790667208.369053) can0 002#8000800000000800
(1790667208.369095) can0 003#8000800000000800
(1790667208.369138) can1 004#8000800000000800
(1790667208.369139) can1 013#037FF17FF7F91E1A
(1790667208.369222) can1 005#8000800000000800
(1790667208.369314) can1 006#8000800000000800
(1790667208.369394) can1 001#8000800000000800
(1790667208.369477) can1 002#8000800000000800
(1790667208.369561) can1 003#8000800000000800
(1790667208.369830) can0 011#0180427FF7F7211D
(1790667208.369940) can0 012#02821F7FF80B2F1F
(1790667208.369992) can1 011#01802D7FF7F2221C
(1790667208.370069) can0 013#0380137FF7F9221B
(1790667208.370117) can1 012#0280017FF800201B
(1790667208.370187) can0 014#0480057FF7FA2D1F
(1790667208.370223) can1 013#037FF17FF7F91E1A
(1790667208.370301) can0 014#0480057FF8022D1F
(1790667208.370353) can1 013#037FF17FF7F51E1A
(1790667208.370414) can0 014#0480057FF8022D1F
(1790667208.370466) can1 014#0481877FF7FB2D16
(1790667208.370544) can0 015#057FF17FF805301E
(1790667208.370596) can1 014#0481877FF7FC2D16
(1790667208.370674) can0 015#057FF17FF801301E
(1790667208.370717) can1 015#05809E7FF7FF201C
(1790667208.370778) can0 015#057FF17FF800301E
(1790667208.370830) can1 015#05809E7FF7FF201C
(1790667208.370893) can0 016#0680367FF800291B
(1790667208.370943) can1 015#05809E7FF804201C
(1790667208.371023) can0 016#0680367FF801291B
(1790667208.371066) can0 004#8000800000000800
(1790667208.371067) can0 005#8000800000000800
(1790667208.371103) can1 016#067F117FF806221A
(1790667208.371149) can0 006#8000800000000800
(1790667208.371150) can0 001#8000800000000800
(1790667208.371150) can0 002#8000800000000800
(1790667208.371182) can0 003#8000800000000800
(1790667208.371183) can1 016#067F117FF805221A
(1790667208.371226) can1 004#8000800000000800
(1790667208.371306) can1 005#8000800000000800
(1790667208.371306) can1 016#067F117FF801221A
(1790667208.371385) can1 006#8000800000000800
(1790667208.371468) can1 001#8000800000000800
(1790667208.371568) can1 002#8000800000000800
(1790667208.371645) can1 003#8000800000000800
(1790667208.372023) can0 011#0180427FF7E8211D
(1790667208.372149) can0 012#02821F7FF8072F1F
(1790667208.372185) can1 011#01802D7FF7F5221C
(1790667208.372267) can0 013#0380137FF7FB221B
(1790667208.372301) can1 012#0280017FF801201B
(1790667208.372380) can0 014#0480057FF7FF2D1F
(1790667208.372411) can1 013#037FF17FF7F31F1A
(1790667208.372519) can0 015#057FF17FF7FD301E
(1790667208.372563) can1 014#0481877FF7FD2D16
(1790667208.372619) can0 016#0680367FF801291B
(1790667208.372666) can1 015#05809E7FF805201C
(1790667208.372779) can1 016#067F117FF802221A
(1790667208.373198) can0 004#8000800000000800
(1790667208.373236) can0 005#8000800000000800
(1790667208.373275) can0 006#8000800000000800
(1790667208.373276) can0 001#8000800000000800
(1790667208.373315) can0 002#8000800000000800
(1790667208.373316) can0 003#8000800000000800
(1790667208.373365) can0 004#8000800000000800
(1790667208.373363) can1 004#8000800000000800
(1790667208.373404) can0 005#8000800000000800
(1790667208.373405) can0 006#8000800000000800
(1790667208.373436) can0 001#8000800000000800
(1790667208.373479) can0 002#8000800000000800
(1790667208.373480) can0 003#8000800000000800
(1790667208.373519) can0 004#8000800000000800
(1790667208.373520) can0 005#8000800000000800
(1790667208.373562) can0 006#8000800000000800
(1790667208.373563) can1 005#8000800000000800
(1790667208.373592) can0 001#8000800000000800
(1790667208.373593) can0 002#8000800000000800
(1790667208.373637) can0 003#8000800000000800
(1790667208.373677) can1 006#8000800000000800
(1790667208.373759) can1 001#8000800000000800
(1790667208.373841) can1 002#8000800000000800
(1790667208.373941) can1 003#8000800000000800
(1790667208.374021) can1 004#8000800000000800
(1790667208.374100) can1 005#8000800000000800
(1790667208.374192) can1 006#8000800000000800
(1790667208.374274) can1 001#8000800000000800
(1790667208.374316) can1 002#8000800000000800
(1790667208.374396) can1 003#8000800000000800
(1790667208.374476) can1 004#8000800000000800
(1790667208.374562) can1 005#8000800000000800
(1790667208.374645) can1 006#8000800000000800
(1790667208.374728) can1 001#8000800000000800
(1790667208.374813) can1 002#8000800000000800
(1790667208.374893) can1 003#8000800000000800
(1790667208.375566) can0 011#0180427FF7F8211D
(1790667208.375648) can0 011#0180427FF7F8211D
(1790667208.375778) can0 011#0180427FF7FF211D
(1790667208.375821) can1 011#01802D7FF7F3221C
(1790667208.375893) can0 012#02821F7FF8052F1F
(1790667208.375942) can1 011#01802D7FF7EF221C
(1790667208.376020) can0 012#02821F7FF803301F
(1790667208.376064) can1 011#01802D7FF7EF221C
(1790667208.376142) can0 012#02821F7FF8032F1F
(1790667208.376187) can1 012#0280017FF802201B
(1790667208.376250) can0 013#0380137FF7FB221B
(1790667208.376289) can1 012#0280017FF802201B
(1790667208.376367) can0 013#0380137FF7FB221B
(1790667208.376418) can1 012#0280017FF802201B
(1790667208.376497) can0 013#0380137FF7FA221B
(1790667208.376540) can1 013#037FF17FF7FD1E1A
(1790667208.376600) can0 014#0480057FF7FE2D1F
(1790667208.376651) can1 013#037FF17FF7FD1E1A
(1790667208.376729) can0 014#0480057FF7FE2D1F
(1790667208.376768) can1 013#037FF17FF7FC1E1A
(1790667208.376843) can0 014#0480057FF7FC2D1F
(1790667208.376895) can1 014#0481877FF7F72D16
(1790667208.376973) can0 015#057FF17FF810301E
(1790667208.377017) can1 014#0481877FF7F72D16
(1790667208.377099) can0 015#057FF17FF80D301E
(1790667208.377142) can1 015#05809E7FF807201C
(1790667208.377226) can0 015#057FF17FF80D301E
(1790667208.377269) can1 015#05809E7FF808201C
(1790667208.377327) can0 016#0680367FF802291B
(1790667208.377370) can1 015#05809E7FF808201C
(1790667208.377441) can0 016#0680367FF802291B
(1790667208.377492) can1 016#067F117FF801221A
(1790667208.377572) can0 016#0680367FF802291B
(1790667208.377614) can1 016#067F117FF801221A
(1790667208.377726) can1 016#067F117FF801221A
(1790667208.381575) can0 004#8000800000000800
(1790667208.381579) can0 005#8000800000000800
(1790667208.381604) can0 006#8000800000000800
(1790667208.381605) can0 001#8000800000000800
(1790667208.381642) can0 002#8000800000000800
(1790667208.381684) can0 003#8000800000000800
(1790667208.381729) can1 004#8000800000000800
(1790667208.381805) can1 005#8000800000000800
(1790667208.381887) can1 006#8000800000000800
(1790667208.381968) can1 001#8000800000000800
(1790667208.382061) can1 002#8000800000000800
(1790667208.382140) can1 003#8000800000000800
(1790667208.382393) can0 011#0180427FF807211D
(1790667208.382494) can0 012#02821F7FF8072F1F
(1790667208.382552) can1 011#01802D7FF7EF221C
(1790667208.382624) can0 013#0380137FF7F6221B
(1790667208.382676) can1 012#0280017FF801201B
(1790667208.382728) can0 014#0480057FF7FA2D1F
(1790667208.382789) can1 013#037FF17FF7F01E1A
(1790667208.382841) can0 015#057FF17FF800301E
(1790667208.382919) can1 014#0481877FF8022D16
(1790667208.382970) can0 016#0680367FF7FB291B
(1790667208.383023) can1 015#05809E7FF802211C
(1790667208.383143) can1 016#067F117FF804221A
(1790667208.389489) can0 004#8000800000000800
(1790667208.389521) can0 005#8000800000000800
(1790667208.389565) can0 006#8000800000000800
(1790667208.389565) can0 001#8000800000000800
(1790667208.389609) can0 002#8000800000000800
(1790667208.389610) can0 003#8000800000000800
(1790667208.389650) can1 004#8000800000000800
(1790667208.389726) can1 005#8000800000000800
(1790667208.389812) can1 006#8000800000000800
(1790667208.389895) can1 001#8000800000000800
(1790667208.389978) can1 002#8000800000000800
(1790667208.390062) can1 003#8000800000000800
(1790667208.390329) can0 011#0180427FF80D211D
(1790667208.390457) can0 012#02821F7FF8092F1F
(1790667208.390526) can1 011#01802D7FF7FB221C
(1790667208.390570) can0 013#0380137FF802221B
(1790667208.390620) can1 012#0280017FF800201B
(1790667208.390700) can0 014#0480057FF8022D1F
(1790667208.390750) can1 013#037FF17FF8021E1A
(1790667208.390800) can0 015#057FF17FF7FD301E
(1790667208.390850) can1 014#0481877FF8002D16
(1790667208.390925) can0 016#0680367FF7F4291B
(1790667208.390975) can1 015#05809E7FF801211C
(1790667208.391096) can1 016#067F117FF7FE221A
(1790667208.397577) can0 004#8000800000000800
(1790667208.397593) can0 005#8000800000000800
(1790667208.397602) can0 006#8000800000000800
(1790667208.397603) can0 001#8000800000000800
(1790667208.397638) can0 002#8000800000000800
(1790667208.397687) can0 003#8000800000000800
(1790667208.397689) can1 004#8000800000000800
(1790667208.397776) can1 005#8000800000000800
(1790667208.397815) can1 006#8000800000000800
(1790667208.397893) can1 001#8000800000000800
(1790667208.397976) can1 002#8000800000000800
(1790667208.398062) can1 003#8000800000000800
(1790667208.398354) can0 011#0180427FF814211D
(1790667208.398492) can0 012#02821F7FF7FA2F1F
(1790667208.398535) can1 011#01802D7FF7F7221C
(1790667208.398597) can0 013#0380137FF80C221B
(1790667208.398648) can1 012#0280017FF800201B
(1790667208.398726) can0 014#0480057FF8002D1F
(1790667208.398779) can1 013#037FF17FF7E71E1A
(1790667208.398830) can0 015#057FF17FF7FA301E
(1790667208.398893) can1 014#0481877FF7FB2D16
(1790667208.398972) can0 016#0680367FF7FE291B
(1790667208.399020) can1 015#05809E7FF7FE201C
(1790667208.399143) can1 016#067F117FF800221A
(1790667208.405557) can0 004#8000800000000800
(1790667208.405563) can0 005#8000800000000800
(1790667208.405593) can0 006#8000800000000800
(1790667208.405593) can0 001#8000800000000800
(1790667208.405630) can0 002#8000800000000800
(1790667208.405673) can0 003#8000800000000800
(1790667208.405718) can1 004#8000800000000800
(1790667208.405793) can1 005#8000800000000800
(1790667208.405876) can1 006#8000800000000800
(1790667208.405963) can1 001#8000800000000800
(1790667208.406061) can1 002#8000800000000800
(1790667208.406141) can1 003#8000800000000800
(1790667208.406373) can0 011#0180427FF810211D
(1790667208.406474) can0 012#02821F7FF7FE2F1F
(1790667208.406526) can1 011#01802D7FF7F5221C
(1790667208.406604) can0 013#0380137FF805221B
(1790667208.406642) can1 012#0280017FF7FF201B
(1790667208.406717) can0 014#0480057FF8052D1F
(1790667208.406770) can1 013#037FF17FF80D1E1A
(1790667208.406847) can0 015#057FF17FF7F9301E
(1790667208.406900) can1 014#0481877FF8082D16
(1790667208.406951) can0 016#0680367FF7FE291B
(1790667208.407017) can1 015#05809E7FF800201C
(1790667208.407142) can1 016#067F117FF7FB221A
(1790667208.413561) can0 004#8000800000000800
(1790667208.413569) can0 005#8000800000000800
(1790667208.413595) can0 006#8000800000000800
(1790667208.413596) can0 001#8000800000000800
(1790667208.413632) can0 002#8000800000000800
(1790667208.413680) can0 003#8000800000000800
(1790667208.413681) can1 004#8000800000000800
(1790667208.413769) can1 005#8000800000000800
(1790667208.413850) can1 006#8000800000000800
(1790667208.413938) can1 001#8000800000000800
(1790667208.414022) can1 002#8000800000000800
(1790667208.414096) can1 003#8000800000000800
(1790667208.414377) can0 011#0180427FF80E211D
(1790667208.414481) can0 012#02821F7FF7F82F1F
(1790667208.414521) can1 011#01802D7FF7FE221C
(1790667208.414598) can0 013#0380137FF7FD221B
(1790667208.414647) can1 012#0280017FF800201B
(1790667208.414726) can0 014#0480057FF80E2D1F
(1790667208.414776) can1 013#037FF17FF7FF1E1A
(1790667208.414854) can0 015#057FF17FF810301E
(1790667208.414894) can1 014#0481877FF7FD2D16
(1790667208.414969) can0 016#0680367FF7F4291B
(1790667208.415021) can1 015#05809E7FF803201C
(1790667208.415117) can1 016#067F117FF805221A
(1790667208.421502) can0 004#8000800000000800
(1790667208.421575) can0 005#8000800000000800
(1790667208.421575) can0 006#8000800000000800
(1790667208.421656) can1 004#8000800000000800
(1790667208.421575) can0 001#8000800000000800
(1790667208.421608) can0 002#8000800000000800
(1790667208.421655) can0 003#8000800000000800
(1790667208.421729) can1 005#8000800000000800
(1790667208.421812) can1 006#8000800000000800
(1790667208.421898) can1 001#8000800000000800
(1790667208.421972) can1 002#8000800000000800
(1790667208.422063) can1 003#8000800000000800
(1790667208.422324) can0 011#0180427FF80F211D
(1790667208.422454) can0 012#02821F7FF8042F1F
(1790667208.422518) can1 011#01802D7FF7F8221C
(1790667208.422567) can0 013#0380137FF7FA221B
(1790667208.422620) can1 012#0280017FF7FC201B
(1790667208.422696) can0 014#0480057FF7FA2D1F
(1790667208.422749) can1 013#037FF17FF7F61E1A
(1790667208.422801) can0 015#057FF17FF7FB301E
(1790667208.422853) can1 014#0481877FF7FD2D16
(1790667208.422914) can0 016#0680367FF804291B
(1790667208.422966) can1 015#05809E7FF800201C
(1790667208.423097) can1 016#067F117FF7FE221A
(1790667208.429576) can0 004#8000800000000800
(1790667208.429599) can0 005#8000800000000800
(1790667208.429599) can0 006#8000800000000800
(1790667208.429625) can0 001#8000800000000800
(1790667208.429626) can0 002#8000800000000800
(1790667208.429663) can0 003#8000800000000800
(1790667208.429704) can1 004#8000800000000800
(1790667208.429784) can1 005#8000800000000800
(1790667208.429867) can1 006#8000800000000800
(1790667208.429950) can1 001#8000800000000800
(1790667208.430033) can1 002#8000800000000800
(1790667208.430115) can1 003#8000800000000800
(1790667208.430394) can0 011#0180427FF80F211D
(1790667208.430493) can0 012#02821F7FF8052F1F
(1790667208.430543) can1 011#01802D7FF7F0221C
(1790667208.430618) can0 013#0380137FF7FA221B
(1790667208.430660) can1 012#0280017FF800201B
(1790667208.430744) can0 014#0480057FF7FD2D1F
(1790667208.430787) can1 013#037FF17FF7FF1E1A
(1790667208.430868) can0 015#057FF17FF7FB301E
(1790667208.430910) can1 014#0481877FF7F92E16
(1790667208.430968) can0 016#0680367FF805291B
(1790667208.431018) can1 015#05809E7FF7FF201C
(1790667208.431142) can1 016#067F117FF7FB221A
(1790667208.437559) can0 004#8000800000000800
(1790667208.437565) can0 005#8000800000000800
(1790667208.437594) can0 006#8000800000000800
(1790667208.437594) can0 001#8000800000000800
(1790667208.437641) can0 002#8000800000000800
(1790667208.437642) can0 003#8000800000000800
(1790667208.437677) can1 004#8000800000000800
(1790667208.437719) can1 005#8000800000000800
(1790667208.437798) can1 006#8000800000000800
(1790667208.437877) can1 001#8000800000000800
(1790667208.437964) can1 002#8000800000000800
(1790667208.438060) can1 003#8000800000000800
(1790667208.438377) can0 011#0180427FF80D211D
(1790667208.438478) can0 012#02821F7FF8022F1F
(1790667208.438517) can1 011#01802D7FF7FB221C
(1790667208.438594) can0 013#0380137FF7FD221B
(1790667208.438645) can1 012#0280017FF801201B
(1790667208.438725) can0 014#0480057FF8002D1F
(1790667208.438785) can1 013#037FF17FF80D1F1A
(1790667208.438855) can0 015#057FF17FF814301E
(1790667208.438893) can1 014#0481877FF7F92E16
(1790667208.438970) can0 016#0680367FF80D291B
(1790667208.439012) can1 015#05809E7FF7F7201C
(1790667208.439114) can1 016#067F117FF802221A
(1790667208.445491) can0 004#8000800000000800
(1790667208.445525) can0 005#8000800000000800
(1790667208.445567) can0 006#8000800000000800
(1790667208.445568) can0 001#8000800000000800
(1790667208.445611) can0 002#8000800000000800
(1790667208.445611) can0 003#8000800000000800
(1790667208.445648) can1 004#8000800000000800
(1790667208.445731) can1 005#8000800000000800
(1790667208.445814) can1 006#8000800000000800
(1790667208.445894) can1 001#8000800000000800
(1790667208.445977) can1 002#8000800000000800
(1790667208.446060) can1 003#8000800000000800
(1790667208.446347) can0 011#0180427FF80D211D
(1790667208.446450) can0 012#02821F7FF8052F1F
(1790667208.446502) can1 011#01802D7FF7FF221C
(1790667208.446566) can0 013#0380137FF7FA221B
(1790667208.446619) can1 012#0280017FF7FE201B
(1790667208.446696) can0 014#0480057FF7FB2D1F
(1790667208.446765) can1 013#037FF17FF8041E1A
(1790667208.446827) can0 015#057FF17FF80D301E
(1790667208.446860) can1 014#0481877FF7F62E16
(1790667208.446930) can0 016#0680367FF800291B
(1790667208.446980) can1 015#05809E7FF7FF211C
(1790667208.447091) can1 016#067F117FF7FD221A
(1790667208.453488) can0 004#8000800000000800
(1790667208.453522) can0 005#8000800000000800
(1790667208.453565) can0 006#8000800000000800
(1790667208.453566) can0 001#8000800000000800
(1790667208.453605) can0 002#8000800000000800
(1790667208.453650) can0 003#8000800000000800
(1790667208.453650) can1 004#8000800000000800
(1790667208.453724) can1 005#8000800000000800
(1790667208.453813) can1 006#8000800000000800
(1790667208.453893) can1 001#8000800000000800
(1790667208.453976) can1 002#8000800000000800
(1790667208.454060) can1 003#8000800000000800
(1790667208.454321) can0 011#0180427FF80B211D
(1790667208.454451) can0 012#02821F7FF7EE2F1F
(1790667208.454517) can1 011#01802D7FF7FA221C
(1790667208.454566) can0 013#0380137FF7FB221B
(1790667208.454618) can1 012#0280017FF801201B
(1790667208.454696) can0 014#0480057FF7F82D1F
(1790667208.454764) can1 013#037FF17FF8011F1A
(1790667208.454800) can0 015#057FF17FF80E301E
(1790667208.454852) can1 014#0481877FF7F72E16
(1790667208.454939) can0 016#0680367FF809291B
(1790667208.454983) can1 015#05809E7FF7F9201C
(1790667208.455095) can1 016#067F117FF802221A
(1790667208.461556) can0 004#8000800000000800
(1790667208.461558) can0 005#8000800000000800
(1790667208.461594) can0 006#8000800000000800
(1790667208.461595) can0 001#8000800000000800
(1790667208.461631) can0 002#8000800000000800
(1790667208.461679) can0 003#8000800000000800
(1790667208.461680) can1 004#8000800000000800
(1790667208.461717) can1 005#8000800000000800
(1790667208.461797) can1 006#8000800000000800
(1790667208.461877) can1 001#8000800000000800
(1790667208.461963) can1 002#8000800000000800
(1790667208.462046) can1 003#8000800000000800
(1790667208.462353) can0 011#0180427FF80F211D
(1790667208.462492) can0 012#02821F7FF7FB2F1F
(1790667208.462528) can1 011#01802D7FF800221C
(1790667208.462597) can0 013#0380137FF7FE221B
(1790667208.462650) can1 012#0280017FF803201B
(1790667208.462727) can0 014#0480057FF7FC2D1F
(1790667208.462779) can1 013#037FF17FF7FD1E1A
(1790667208.462857) can0 015#057FF17FF7F7301E
(1790667208.462893) can1 014#0481877FF7F52D16
(1790667208.462970) can0 016#0680367FF7FA291B
(1790667208.463021) can1 015#05809E7FF7F6201C
(1790667208.463124) can1 016#067F117FF802221A
(1790667208.469487) can0 004#8000800000000800
(1790667208.469524) can0 005#8000800000000800
(1790667208.469567) can0 006#8000800000000800
(1790667208.469568) can0 001#8000800000000800
(1790667208.469610) can0 002#8000800000000800
(1790667208.469611) can0 003#8000800000000800
(1790667208.469648) can1 004#8000800000000800
(1790667208.469727) can1 005#8000800000000800
(1790667208.469810) can1 006#8000800000000800
(1790667208.469892) can1 001#8000800000000800
(1790667208.469974) can1 002#8000800000000800
(1790667208.470061) can1 003#8000800000000800
(1790667208.470345) can0 011#0180427FF7F8211D
(1790667208.470446) can0 012#02821F7FF8032F1F
(1790667208.470493) can1 011#01802D7FF80C221C
(1790667208.470568) can0 013#0380137FF7F6221B
(1790667208.470618) can1 012#0280017FF800201B
(1790667208.470696) can0 014#0480057FF7FA2D1F
(1790667208.470747) can1 013#037FF17FF8011E1A
(1790667208.470820) can0 015#057FF17FF80C301E
(1790667208.470869) can1 014#0481877FF8052D16
(1790667208.470919) can0 016#068036800811291B
(1790667208.470971) can1 015#05809E7FF805211C
(1790667208.471096) can1 016#067F117FF801221A
(1790667208.477605) can0 004#8000800000000800
(1790667208.477611) can0 005#8000800000000800
(1790667208.477628) can0 006#8000800000000800
(1790667208.477671) can0 001#8000800000000800
(1790667208.477671) can0 002#8000800000000800
(1790667208.477708) can0 003#8000800000000800
(1790667208.477756) can1 004#8000800000000800
(1790667208.477838) can1 005#8000800000000800
(1790667208.477937) can1 006#8000800000000800
(1790667208.478017) can1 001#8000800000000800
(1790667208.478100) can1 002#8000800000000800
(1790667208.478189) can1 003#8000800000000800
(1790667208.478439) can0 011#0180427FF802211D
(1790667208.478543) can0 012#02821F7FF8002F1F
(1790667208.478595) can1 011#01802D7FF807221C
(1790667208.478673) can0 013#0380137FF7F9221B
(1790667208.478725) can1 012#0280017FF800201B
(1790667208.478803) can0 014#0480057FF7FC2D1F
(1790667208.478839) can1 013#037FF17FF7F81E1A
(1790667208.478910) can0 015#057FF17FF803301E
(1790667208.478956) can1 014#0481877FF7FC2D16
(1790667208.479043) can0 016#0680367FF7FC291B
(1790667208.479087) can1 015#05809E7FF7FB211C
(1790667208.479186) can1 016#067F117FF7FC221A
(1790667208.485470) can0 004#8000800000000800
(1790667208.485508) can0 005#8000800000000800
(1790667208.485551) can0 006#8000800000000800
(1790667208.485551) can0 001#8000800000000800
(1790667208.485591) can0 002#8000800000000800
(1790667208.485592) can0 003#8000800000000800
(1790667208.485634) can1 004#8000800000000800
(1790667208.485717) can1 005#8000800000000800
(1790667208.485811) can1 006#8000800000000800
(1790667208.485892) can1 001#8000800000000800
(1790667208.485975) can1 002#8000800000000800
(1790667208.486060) can1 003#8000800000000800
(1790667208.486321) can0 011#0180427FF815211D
(1790667208.486451) can0 012#02821F7FF8012F1F
(1790667208.486487) can1 011#01802D7FF800221C
(1790667208.486564) can0 013#0380137FF7F9221B
(1790667208.486607) can1 012#0280017FF801201B
(1790667208.486669) can0 014#0480057FF7FE2D1F
(1790667208.486721) can1 013#037FF17FF7F11F1A
(1790667208.486799) can0 015#057FF1800800301E
(1790667208.486843) can1 014#0481877FF7F62D16
(1790667208.486929) can0 016#0680367FF807291B
(1790667208.486965) can1 015#05809E7FF7FF201C
(1790667208.487067) can1 016#067F117FF7FE221A
(1790667208.493497) can0 004#8000800000000800
(1790667208.493530) can0 005#8000800000000800
(1790667208.493578) can0 006#8000800000000800
(1790667208.493579) can0 001#8000800000000800
(1790667208.493616) can0 002#8000800000000800
(1790667208.493617) can0 003#8000800000000800
(1790667208.493654) can1 004#8000800000000800
(1790667208.493733) can1 005#8000800000000800
(1790667208.493815) can1 006#8000800000000800
(1790667208.493895) can1 001#8000800000000800
(1790667208.493980) can1 002#8000800000000800
(1790667208.494050) can1 003#8000800000000800
(1790667208.494350) can0 011#0180427FF80C211D
(1790667208.494456) can0 012#02821F7FF8022F1F
(1790667208.494518) can1 011#01802D7FF808221C
(1790667208.494567) can0 013#0380137FF7FB221B
(1790667208.494621) can1 012#0280017FF7FF201B
(1790667208.494698) can0 014#0480057FF7FF2D1F
(1790667208.494752) can1 013#037FF17FE7F41E1A
(1790667208.494826) can0 015#057FF17FF7FA301E
(1790667208.494893) can1 014#0481877FF7F92D16
(1790667208.494943) can0 016#0680367FF7FF291B
(1790667208.494996) can1 015#05809E7FF803211C
(1790667208.495115) can1 016#067F117FF80E221A
(1790667208.501516) can0 004#8000800000000800
(1790667208.501547) can0 005#8000800000000800
(1790667208.501589) can0 006#8000800000000800
(1790667208.501590) can0 001#8000800000000800
(1790667208.501629) can0 002#8000800000000800
(1790667208.501629) can0 003#8000800000000800
(1790667208.501674) can1 004#8000800000000800
(1790667208.501752) can1 005#8000800000000800
(1790667208.501838) can1 006#8000800000000800
(1790667208.501935) can1 001#8000800000000800
(1790667208.502019) can1 002#8000800000000800
(1790667208.502062) can1 003#8000800000000800
(1790667208.502355) can0 011#0180427FF809211D
(1790667208.502465) can0 012#02821F7FE7FC2F1F
(1790667208.502516) can1 011#01802D7FF806221C
(1790667208.502595) can0 013#0380137FF809221B
(1790667208.502638) can1 012#0280017FF7FD201B
(1790667208.502724) can0 014#0480057FF7FA2D1F
(1790667208.502767) can1 013#037FF17FF7FF1F1A
(1790667208.502840) can0 015#057FF17FF7F9301E
(1790667208.502883) can1 014#0481877FF8012D16
(1790667208.502944) can0 016#0680367FF7FC291B
(1790667208.502995) can1 015#05809E7FF800201C
(1790667208.503094) can1 016#067F117FF804221A
(1790667208.509559) can0 004#8000800000000800
(1790667208.509567) can0 005#8000800000000800
(1790667208.509568) can0 006#8000800000000800
(1790667208.509594) can0 001#8000800000000800
(1790667208.509642) can0 002#8000800000000800
(1790667208.509643) can0 003#8000800000000800
(1790667208.509681) can1 004#8000800000000800
(1790667208.509720) can1 005#8000800000000800
(1790667208.509799) can1 006#8000800000000800
(1790667208.509880) can1 001#8000800000000800
(1790667208.509962) can1 002#8000800000000800
(1790667208.510047) can1 003#8000800000000800
(1790667208.510391) can0 011#018042800808211D
(1790667208.510493) can0 012#02821F7FF8022F1F
(1790667208.510536) can1 011#01802D7FF805221C
(1790667208.510597) can0 013#0380137FF80B221B
(1790667208.510648) can1 012#0280017FF801201B
(1790667208.510725) can0 014#0480057FF7FC2D1F
(1790667208.510777) can1 013#037FF17FF80B1F1A
(1790667208.510855) can0 015#057FF17FF7FE301E
(1790667208.510892) can1 014#0481877FF7FF2D16
(1790667208.510968) can0 016#0680367FF806291B
(1790667208.511020) can1 015#05809E7FF803211C
(1790667208.511143) can1 016#067F117FF7FC221A
(1790667208.517559) can0 004#8000800000000800
(1790667208.517562) can0 005#8000800000000800
(1790667208.517596) can0 006#8000800000000800
(1790667208.517598) can0 001#8000800000000800
(1790667208.517639) can0 002#8000800000000800
(1790667208.517678) can0 003#8000800000000800
(1790667208.517679) can1 004#8000800000000800
(1790667208.517718) can1 005#8000800000000800
(1790667208.517798) can1 006#8000800000000800
(1790667208.517879) can1 001#8000800000000800
(1790667208.517964) can1 002#8000800000000800
(1790667208.518058) can1 003#8000800000000800
(1790667208.518378) can0 011#0180427FF7FC211D
(1790667208.518484) can0 012#02821F7FF8032F1F
(1790667208.518519) can1 011#01802D7FF805221C
(1790667208.518596) can0 013#0380137FF80C221B
(1790667208.518646) can1 012#0280017FF801201B
(1790667208.518725) can0 014#0480057FF8022D1F
(1790667208.518776) can1 013#037FF18008001E1A
(1790667208.518829) can0 015#057FF17FF7EF301E
(1790667208.518892) can1 014#0481877FF7F52D16
(1790667208.518967) can0 016#0680367FF806291B
(1790667208.519010) can1 015#05809E7FF7E7211C
(1790667208.519116) can1 016#067F117FF800221A
(1790667208.525523) can0 004#8000800000000800
(1790667208.525559) can0 005#8000800000000800
(1790667208.525602) can0 006#8000800000000800
(1790667208.525602) can0 001#8000800000000800
(1790667208.525646) can0 002#8000800000000800
(1790667208.525646) can0 003#8000800000000800
(1790667208.525682) can1 004#8000800000000800
(1790667208.525761) can1 005#8000800000000800
(1790667208.525844) can1 006#8000800000000800
(1790667208.525937) can1 001#8000800000000800
(1790667208.526019) can1 002#8000800000000800
(1790667208.526099) can1 003#8000800000000800
(1790667208.526373) can0 011#0180427FF7FE211D
(1790667208.526516) can0 012#02821F7FF7EE2F1F
(1790667208.526559) can1 011#01802D7FF807221C
(1790667208.526617) can0 013#0380137FF7FE221B
(1790667208.526660) can1 012#0280017FF800201B
(1790667208.526721) can0 014#0480057FF7FA2D1F
(1790667208.526774) can1 013#037FF17FF8071E1A
(1790667208.526851) can0 015#057FF17FF7F9301E
(1790667208.526891) can1 014#0481877FF7F32D16
(1790667208.526966) can0 016#0680367FF7FD291B
(1790667208.527018) can1 015#05809E7FF7F1211C
(1790667208.527115) can1 016#067F117FF801221A
(1790667208.533490) can0 004#8000800000000800
(1790667208.533525) can0 005#8000800000000800
(1790667208.533567) can0 006#8000800000000800
(1790667208.533568) can0 001#8000800000000800
(1790667208.533610) can0 002#8000800000000800
(1790667208.533611) can0 003#8000800000000800
(1790667208.533649) can1 004#8000800000000800
(1790667208.533731) can1 005#8000800000000800
(1790667208.533811) can1 006#8000800000000800
(1790667208.533893) can1 001#8000800000000800
(1790667208.533970) can1 002#8000800000000800
(1790667208.534059) can1 003#8000800000000800
(1790667208.534346) can0 011#0180427FF803211D
(1790667208.534450) can0 012#02821F7FF8032F1F
(1790667208.534516) can1 011#01802D7FF809221C
(1790667208.534566) can0 013#0380137FF7FD221B
(1790667208.534618) can1 012#0280017FF7FD201B
(1790667208.534696) can0 014#0480057FF7FE2D1F
(1790667208.534748) can1 013#037FF17FF80F1E1A
(1790667208.534826) can0 015#057FF17FF800301E
(1790667208.534869) can1 014#0481877FF7FD2D16
(1790667208.534939) can0 016#0680367FF80C291B
(1790667208.534983) can1 015#05809E7FF7FE211C
(1790667208.535093) can1 016#067F117FF7FE221A
(1790667208.541557) can0 004#8000800000000800
(1790667208.541564) can0 005#8000800000000800
(1790667208.541590) can0 006#8000800000000800
(1790667208.541590) can0 001#8000800000000800
(1790667208.541632) can0 002#8000800000000800
(1790667208.541633) can0 003#8000800000000800
(1790667208.541681) can1 004#8000800000000800
(1790667208.541753) can1 005#8000800000000800
(1790667208.541837) can1 006#8000800000000800
(1790667208.541936) can1 001#8000800000000800
(1790667208.542021) can1 002#8000800000000800
(1790667208.542095) can1 003#8000800000000800
(1790667208.542354) can0 011#0180427FF804211D
(1790667208.542468) can0 012#02821F7FF7F52F1F
(1790667208.542518) can1 011#01802D7FF7FD221C
(1790667208.542598) can0 013#0380137FF7F9221B
(1790667208.542632) can1 012#0280017FF801201B
(1790667208.542727) can0 014#0480057FF7FD2D1F
(1790667208.542764) can1 013#037FF17FF80B1E1A
(1790667208.542843) can0 015#057FF17FF7FC301E
(1790667208.542884) can1 014#0481877FF7F92D16
(1790667208.542943) can0 016#0680367FF7FE291B
(1790667208.542995) can1 015#05809E7FF800201C
(1790667208.543118) can1 016#067F117FF7FD221A
(1790667208.549494) can0 004#8000800000000800
(1790667208.549529) can0 005#8000800000000800
(1790667208.549573) can0 006#8000800000000800
(1790667208.549573) can0 001#8000800000000800
(1790667208.549616) can0 002#8000800000000800
(1790667208.549616) can0 003#8000800000000800
(1790667208.549656) can1 004#8000800000000800
(1790667208.549733) can1 005#8000800000000800
(1790667208.549815) can1 006#8000800000000800
(1790667208.549895) can1 001#8000800000000800
(1790667208.549973) can1 002#8000800000000800
(1790667208.550057) can1 003#8000800000000800
(1790667208.550347) can0 011#0180427FF807211D
(1790667208.550449) can0 012#02821F7FF7FD2F1F
(1790667208.550500) can1 011#01802D7FF7FE221C
(1790667208.550588) can0 013#0380137FF7F7221B
(1790667208.550631) can1 012#0280017FF801201B
(1790667208.550692) can0 014#0480057FF8012D1F
(1790667208.550746) can1 013#037FF17FF8041E1A
(1790667208.550822) can0 015#057FF17FF800301E
(1790667208.550872) can1 014#0481877FF7F82D16
(1790667208.550924) can0 016#0680367FF7F6291B
(1790667208.550975) can1 015#05809E7FF800201C
(1790667208.551105) can1 016#067F117FF807221A
(1790667208.557481) can0 004#8000800000000800
(1790667208.557519) can0 005#8000800000000800
(1790667208.557562) can0 006#8000800000000800
(1790667208.557562) can0 001#8000800000000800
(1790667208.557605) can0 002#8000800000000800
(1790667208.557606) can0 003#8000800000000800
(1790667208.557642) can1 004#8000800000000800
(1790667208.557725) can1 005#8000800000000800
(1790667208.557813) can1 006#8000800000000800
(1790667208.557893) can1 001#8000800000000800
(1790667208.557970) can1 002#8000800000000800
(1790667208.558061) can1 003#8000800000000800
(1790667208.558317) can0 011#0180427FF81D211D
(1790667208.558450) can0 012#02821F7FF8152F1F
(1790667208.558516) can1 011#01802D7FF7FE221C
(1790667208.558565) can0 013#0380137FF7F8221B
(1790667208.558617) can1 012#0280017FF7FE201B
(1790667208.558695) can0 014#0480057FF7FC2D1F
(1790667208.558747) can1 013#037FF17FF7E81E1A
(1790667208.558799) can0 015#057FF17FF806301E
(1790667208.558848) can1 014#0481877FF7F82E16
(1790667208.558939) can0 016#0680367FF7FB291B
(1790667208.558982) can1 015#05809E7FF807211C
(1790667208.559095) can1 016#067F117FF7FD221A
(1790667208.565490) can0 004#8000800000000800
(1790667208.565525) can0 005#8000800000000800
(1790667208.565568) can0 006#8000800000000800
(1790667208.565569) can0 001#8000800000000800
(1790667208.565608) can0 002#8000800000000800
(1790667208.565608) can0 003#8000800000000800
(1790667208.565655) can1 004#8000800000000800
(1790667208.565746) can1 005#8000800000000800
(1790667208.565824) can1 006#8000800000000800
(1790667208.565910) can1 001#8000800000000800
(1790667208.565994) can1 002#8000800000000800
(1790667208.566074) can1 003#8000800000000800
(1790667208.566355) can0 011#01804280080A211D
(1790667208.566451) can0 012#02821F7FF8022F1F
(1790667208.566517) can1 011#01802D7FF7F3221C
(1790667208.566566) can0 013#0380137FF7FA221B
(1790667208.566618) can1 012#0280017FF801201B
(1790667208.566696) can0 014#0480057FF7FE2D1F
(1790667208.566738) can1 013#037FF17FF7F61E1A
(1790667208.566826) can0 015#057FF17FF7FB301E
(1790667208.566868) can1 014#0481877FF7F62D16
(1790667208.566939) can0 016#0680367FF7F7291B
(1790667208.566984) can1 015#05809E7FF803201C
(1790667208.567097) can1 016#067F117FF7FF221A
(1790667208.573574) can0 004#8000800000000800
(1790667208.573579) can0 005#8000800000000800
(1790667208.573593) can0 006#8000800000000800
(1790667208.573594) can0 001#8000800000000800
(1790667208.573630) can0 002#8000800000000800
(1790667208.573678) can0 003#8000800000000800
(1790667208.573678) can1 004#8000800000000800
(1790667208.573717) can1 005#8000800000000800
(1790667208.573796) can1 006#8000800000000800
(1790667208.573877) can1 001#8000800000000800
(1790667208.573962) can1 002#8000800000000800
(1790667208.574057) can1 003#8000800000000800
(1790667208.574374) can0 011#0180427FF813211D
(1790667208.574472) can0 012#02821F7FF7F42F1F
(1790667208.574522) can1 011#01802D7FF7F7221C
(1790667208.574597) can0 013#0380137FF7FC221B
(1790667208.574647) can1 012#0280017FF801201B
(1790667208.574722) can0 014#0480057FF7FB2D1F
(1790667208.574773) can1 013#037FF17FF8001E1A
(1790667208.574848) can0 015#057FF17FF7F8301E
(1790667208.574898) can1 014#0481877FF7F82D16
(1790667208.574947) can0 016#0680367FF7FB291B
(1790667208.574995) can1 015#05809E7FF805201C
(1790667208.575116) can1 016#067F117FF801221A
(1790667208.581486) can0 004#8000800000000800
(1790667208.581520) can0 005#8000800000000800
(1790667208.581563) can0 006#8000800000000800
(1790667208.581563) can0 001#8000800000000800
(1790667208.581602) can0 002#8000800000000800
(1790667208.581603) can0 003#8000800000000800
(1790667208.581648) can1 004#8000800000000800
(1790667208.581725) can1 005#8000800000000800
(1790667208.581811) can1 006#8000800000000800
(1790667208.581893) can1 001#8000800000000800
(1790667208.581969) can1 002#8000800000000800
(1790667208.582058) can1 003#8000800000000800
(1790667208.582325) can0 011#0180427FF80E211D
(1790667208.582438) can0 012#02821F7FF7FC2F1F
(1790667208.582490) can1 011#01802D7FF800221C
(1790667208.582568) can0 013#0380137FF7F9221B
(1790667208.582611) can1 012#0280017FF802201B
(1790667208.582698) can0 014#0480057FF7FD2D1F
(1790667208.582743) can1 013#037FF17FF80B1E1A
(1790667208.582802) can0 015#057FF17FF7F7301E
(1790667208.582845) can1 014#0481877FF7F82D16
(1790667208.582938) can0 016#0680368007FD291B
(1790667208.582981) can1 015#05809E7FF7F2211C
(1790667208.583068) can1 016#067F117FF801221A
(1790667208.589491) can0 004#8000800000000800
(1790667208.589523) can0 005#8000800000000800
(1790667208.589566) can0 006#8000800000000800
(1790667208.589566) can0 001#8000800000000800
(1790667208.589609) can0 002#8000800000000800
(1790667208.589610) can0 003#8000800000000800
(1790667208.589647) can1 004#8000800000000800
(1790667208.589725) can1 005#8000800000000800
(1790667208.589810) can1 006#8000800000000800
(1790667208.589894) can1 001#8000800000000800
(1790667208.589976) can1 002#8000800000000800
(1790667208.590084) can1 003#8000800000000800
(1790667208.590325) can0 011#0180427FF801211D
(1790667208.590453) can0 012#02821F7FF7FE2F1F
(1790667208.590504) can1 011#01802D7FF817221C
(1790667208.590568) can0 013#0380137FF7F8221B
(1790667208.590619) can1 012#0280017FF800201B
(1790667208.590697) can0 014#0480057FF7FF2D1F
(1790667208.590748) can1 013#037FF17FF8011E1A
(1790667208.590822) can0 015#057FF17FF7F7301E
(1790667208.590867) can1 014#0481877FF7F32D16
(1790667208.590927) can0 016#0680367FF7FA291B
(1790667208.590978) can1 015#05809E7FF7FA201C
(1790667208.591088) can1 016#067F117FF807221A
(1790667208.597561) can0 004#8000800000000800
(1790667208.597569) can0 005#8000800000000800
(1790667208.597595) can0 006#8000800000000800
(1790667208.597596) can0 001#8000800000000800
(1790667208.597632) can0 002#8000800000000800
(1790667208.597680) can0 003#8000800000000800
(1790667208.597680) can1 004#8000800000000800
(1790667208.597756) can1 005#8000800000000800
(1790667208.597841) can1 006#8000800000000800
(1790667208.597936) can1 001#8000800000000800
(1790667208.598017) can1 002#8000800000000800
(1790667208.598099) can1 003#8000800000000800
(1790667208.598350) can0 011#018042800810211D
(1790667208.598478) can0 012#02821F7FF8072F1F
(1790667208.598539) can1 011#01802D7FF806221C
(1790667208.598590) can0 013#0380137FF7FD221B
(1790667208.598642) can1 012#0280017FF7FE201B
(1790667208.598721) can0 014#0480057FF7F82D1F
(1790667208.598771) can1 013#037FF17FF7F11E1A
(1790667208.598849) can0 015#057FF17FF802301E
(1790667208.598893) can1 014#0481877FF8012D16
(1790667208.598964) can0 016#0680367FF7F6291B
(1790667208.599016) can1 015#05809E7FF801201C
(1790667208.599117) can1 016#067F117FF7FF221A
(1790667208.605497) can0 004#8000800000000800
(1790667208.605539) can0 005#8000800000000800
(1790667208.605539) can0 006#8000800000000800
(1790667208.605571) can0 001#8000800000000800
(1790667208.605571) can0 002#8000800000000800
(1790667208.605608) can0 003#8000800000000800
(1790667208.605653) can1 004#8000800000000800
(1790667208.605696) can1 005#8000800000000800
(1790667208.605770) can1 006#8000800000000800
(1790667208.605814) can1 001#8000800000000800
(1790667208.605893) can1 002#8000800000000800
(1790667208.605971) can1 003#8000800000000800
(1790667208.606346) can0 011#0180427FE809211D
(1790667208.606449) can0 012#02821F7FF7E22F1F
(1790667208.606512) can1 011#01802D7FF805221C
(1790667208.606565) can0 013#0380137FF801221B
(1790667208.606617) can1 012#0280017FF7FE201B
(1790667208.606695) can0 014#0480057FF7FB2D1F
(1790667208.606740) can1 013#037FF17FF7FC1E1A
(1790667208.606825) can0 015#057FF17FF80F301E
(1790667208.606869) can1 014#0481877FF7F92D16
(1790667208.606938) can0 016#0680367FF7FC291B
(1790667208.606981) can1 015#05809E7FF803211C
(1790667208.607094) can1 016#067F117FF7F6221A
(1790667208.613492) can0 004#8000800000000800
(1790667208.613525) can0 005#8000800000000800
(1790667208.613568) can0 006#8000800000000800
(1790667208.613569) can0 001#8000800000000800
(1790667208.613614) can0 002#8000800000000800
(1790667208.613615) can0 003#8000800000000800
(1790667208.613649) can1 004#8000800000000800
(1790667208.613731) can1 005#8000800000000800
(1790667208.613812) can1 006#8000800000000800
(1790667208.613894) can1 001#8000800000000800
(1790667208.613970) can1 002#8000800000000800
(1790667208.614058) can1 003#8000800000000800
(1790667208.614352) can0 011#0180427FF805211D
(1790667208.614450) can0 012#02821F7FF7FB2F1F
(1790667208.614510) can1 011#01802D7FF800221C
(1790667208.614579) can0 013#0380137FF806221B
(1790667208.614627) can1 012#0280017FF7FE201B
(1790667208.614705) can0 014#0480057FF7FB2D1F
(1790667208.614754) can1 013#037FF17FF8091E1A
(1790667208.614829) can0 015#057FF17FF80B301E
(1790667208.614864) can1 014#0481877FF8072D16
(1790667208.614924) can0 016#0680367FF7F5291B
(1790667208.614974) can1 015#05809E7FF801211C
(1790667208.615100) can1 016#067F117FF7FF221A
(1790667208.621489) can0 004#8000800000000800
(1790667208.621523) can0 005#8000800000000800
(1790667208.621565) can0 006#8000800000000800
(1790667208.621566) can0 001#8000800000000800
(1790667208.621611) can0 002#8000800000000800
(1790667208.621613) can0 003#8000800000000800
(1790667208.621652) can1 004#8000800000000800
(1790667208.621726) can1 005#8000800000000800
(1790667208.621810) can1 006#8000800000000800
(1790667208.621894) can1 001#8000800000000800
(1790667208.621976) can1 002#8000800000000800
(1790667208.622059) can1 003#8000800000000800
(1790667208.622325) can0 011#0180427FF806211D
(1790667208.622438) can0 012#02821F7FF8082F1F
(1790667208.622490) can1 011#01802D7FF7F4221C
(1790667208.622584) can0 013#0380137FF806221B
(1790667208.622620) can1 012#0280017FF803201B
(1790667208.622698) can0 014#0480057FF7F72D1F
(1790667208.622744) can1 013#037FF17FF7F91F1A
(1790667208.622802) can0 015#057FF17FF816301E
(1790667208.622854) can1 014#0481877FF7FC2D16
(1790667208.622912) can0 016#0680367FF80F291B
(1790667208.622964) can1 015#05809E7FF7F9201C
(1790667208.623094) can1 016#067F117FF800221A
(1790667208.629508) can0 004#8000800000000800
(1790667208.629540) can0 005#8000800000000800
(1790667208.629541) can0 006#8000800000000800
(1790667208.629569) can0 001#8000800000000800
(1790667208.629621) can0 002#8000800000000800
(1790667208.629621) can0 003#8000800000000800
(1790667208.629657) can1 004#8000800000000800
(1790667208.629743) can1 005#8000800000000800
(1790667208.629823) can1 006#8000800000000800
(1790667208.629907) can1 001#8000800000000800
(1790667208.629991) can1 002#8000800000000800
(1790667208.630070) can1 003#8000800000000800
(1790667208.630349) can0 011#018042800808211D
(1790667208.630453) can0 012#02821F7FF8042F1F
(1790667208.630496) can1 011#01802D7FF7F9221C
(1790667208.630589) can0 013#0380137FF7FA221B
(1790667208.630633) can1 012#0280017FF803201B
(1790667208.630693) can0 014#0480057FF8022D1F
(1790667208.630736) can1 013#037FF17FF7EE1E1A
(1790667208.630822) can0 015#057FF17FF803301E
(1790667208.630867) can1 014#0481877FF8032D16
(1790667208.630926) can0 016#0680367FF7FC291B
(1790667208.630970) can1 015#05809E7FF807211C
(1790667208.631088) can1 016#067F117FF7FD221A
(1790667208.637483) can0 004#8000800000000800
(1790667208.637522) can0 005#8000800000000800
(1790667208.637565) can0 006#8000800000000800
(1790667208.637566) can0 001#8000800000000800
(1790667208.637605) can0 002#8000800000000800
(1790667208.637605) can0 003#8000800000000800
(1790667208.637643) can1 004#8000800000000800
(1790667208.637724) can1 005#8000800000000800
(1790667208.637809) can1 006#8000800000000800
(1790667208.637891) can1 001#8000800000000800
(1790667208.637975) can1 002#8000800000000800
(1790667208.638059) can1 003#8000800000000800
(1790667208.638322) can0 011#0180427FF7F6211D
(1790667208.638451) can0 012#02821F7FF8062F1F
(1790667208.638518) can1 011#01802D7FF7FB221C
(1790667208.638565) can0 013#0380137FF7FE221B
(1790667208.638618) can1 012#0280017FF7FF201B
(1790667208.638697) can0 014#0480057FF7FB2D1F
(1790667208.638745) can1 013#037FF17FF7FB1F1A
(1790667208.638800) can0 015#057FF17FF7FB301E
(1790667208.638854) can1 014#0481878008072D16
(1790667208.638941) can0 016#0680367FF7FC291B
(1790667208.638983) can1 015#05809E7FF801201C
(1790667208.639095) can1 016#067F117FF7FF221A
(1790667208.645501) can0 004#8000800000000800
(1790667208.645523) can0 005#8000800000000800
(1790667208.645568) can0 006#8000800000000800
(1790667208.645569) can0 001#8000800000000800
(1790667208.645615) can0 002#8000800000000800
(1790667208.645615) can0 003#8000800000000800
(1790667208.645650) can1 004#8000800000000800
(1790667208.645692) can1 005#8000800000000800
(1790667208.645768) can1 006#8000800000000800
(1790667208.645846) can1 001#8000800000000800
(1790667208.645937) can1 002#8000800000000800
(1790667208.646016) can1 003#8000800000000800
(1790667208.646325) can0 011#0180427FF80F211D
(1790667208.646466) can0 012#02821F7FF8052F1F
(1790667208.646509) can1 011#01802D7FF7FF221C
(1790667208.646568) can0 013#0380137FF807221B
(1790667208.646620) can1 012#0280017FF7FE201B
(1790667208.646699) can0 014#0480057FF7FD2D1F
(1790667208.646743) can1 013#037FF17FF8031E1A
(1790667208.646802) can0 015#057FF17FF7FA301E
(1790667208.646855) can1 014#0481877FF7F72D16
(1790667208.646939) can0 016#0680367FF800291B
(1790667208.646982) can1 015#05809E7FF7FC201C
(1790667208.647094) can1 016#067F117FF7FE221A
(1790667208.653500) can0 004#8000800000000800
(1790667208.653540) can0 005#8000800000000800
(1790667208.653540) can0 006#8000800000000800
(1790667208.653577) can0 001#8000800000000800
(1790667208.653578) can0 002#8000800000000800
(1790667208.653626) can0 003#8000800000000800
(1790667208.653627) can1 004#8000800000000800
(1790667208.653698) can1 005#8000800000000800
(1790667208.653782) can1 006#8000800000000800
(1790667208.653866) can1 001#8000800000000800
(1790667208.653948) can1 002#8000800000000800
(1790667208.654031) can1 003#8000800000000800
(1790667208.654349) can0 011#0180427FF80C211D
(1790667208.654451) can0 012#02821F7FF7F42F1F
(1790667208.654495) can1 011#01802D7FF7FF221C
(1790667208.654561) can0 013#0380137FF7FC221B
(1790667208.654612) can1 012#0280017FF7FE201B
(1790667208.654691) can0 014#0480057FF8042D1F
(1790667208.654735) can1 013#037FF17FF8131E1A
(1790667208.654822) can0 015#057FF17FF7FD301E
(1790667208.654865) can1 014#0481877FE7F82D16
(1790667208.654922) can0 016#0680367FF7FE291B
(1790667208.654966) can1 015#05809E7FF800211C
(1790667208.655087) can1 016#067F117FF802221A
(1790667208.661484) can0 004#8000800000000800
(1790667208.661519) can0 005#8000800000000800
(1790667208.661563) can0 006#8000800000000800
(1790667208.661563) can0 001#8000800000000800
(1790667208.661605) can0 002#8000800000000800
(1790667208.661606) can0 003#8000800000000800
(1790667208.661643) can1 004#8000800000000800
(1790667208.661725) can1 005#8000800000000800
(1790667208.661809) can1 006#8000800000000800
(1790667208.661891) can1 001#8000800000000800
(1790667208.661972) can1 002#8000800000000800
(1790667208.662058) can1 003#8000800000000800
(1790667208.662322) can0 011#0180427FF805211D
(1790667208.662451) can0 012#02821F7FF8092F1F
(1790667208.662517) can1 011#01802D7FF7FE221C
(1790667208.662565) can0 013#0380137FF806221B
(1790667208.662618) can1 012#0280017FF7FD201B
(1790667208.662698) can0 014#0480057FF7FB2D1F
(1790667208.662754) can1 013#037FF17FF8081E1A
(1790667208.662848) can0 015#057FF17FF7F7301E
(1790667208.662855) can1 014#0481877FF7FC2D16
(1790667208.662941) can0 016#0680367FF7FD291B
(1790667208.662976) can1 015#05809E7FF803201C
(1790667208.663096) can1 016#067F117FF7FD221A
(1790667208.669485) can0 004#8000800000000800
(1790667208.669523) can0 005#8000800000000800
(1790667208.669573) can0 006#8000800000000800
(1790667208.669574) can0 001#8000800000000800
(1790667208.669609) can0 002#8000800000000800
(1790667208.669609) can0 003#8000800000000800
(1790667208.669646) can1 004#8000800000000800
(1790667208.669725) can1 005#8000800000000800
(1790667208.669808) can1 006#8000800000000800
(1790667208.669890) can1 001#8000800000000800
(1790667208.669974) can1 002#8000800000000800
(1790667208.670059) can1 003#8000800000000800
(1790667208.670348) can0 011#0180427FF814211D
(1790667208.670450) can0 012#02821F7FF7FF2F1F
(1790667208.670515) can1 011#01802D7FF7F6221C
(1790667208.670565) can0 013#0380137FF7FA221B
(1790667208.670618) can1 012#0280017FF7FE201B
(1790667208.670696) can0 014#0480057FF7F92D1F
(1790667208.670753) can1 013#037FF17FF8081F1A
(1790667208.670799) can0 015#057FF17FF7FB301E
(1790667208.670851) can1 014#0481877FF7F92D16
(1790667208.670939) can0 016#0680367FF805291B
(1790667208.670990) can1 015#05809E7FF801201C
(1790667208.671096) can1 016#067F117FF800221A
(1790667208.677487) can0 004#8000800000000800
(1790667208.677525) can0 005#8000800000000800
(1790667208.677567) can0 006#8000800000000800
(1790667208.677568) can0 001#8000800000000800
(1790667208.677607) can0 002#8000800000000800
(1790667208.677607) can0 003#8000800000000800
(1790667208.677649) can1 004#8000800000000800
(1790667208.677727) can1 005#8000800000000800
(1790667208.677810) can1 006#8000800000000800
(1790667208.677891) can1 001#8000800000000800
(1790667208.677974) can1 002#8000800000000800
(1790667208.678058) can1 003#8000800000000800
(1790667208.678345) can0 011#0180427FF811211D
(1790667208.678449) can0 012#02821F7FF7FD2F1F
(1790667208.678515) can1 011#01802D7FF7F7221C
(1790667208.678564) can0 013#0380137FF801221B
(1790667208.678616) can1 012#0280017FF801201B
(1790667208.678694) can0 014#0480057FF7FA2D1F
(1790667208.678737) can1 013#037FF17FF7FA1F1A
(1790667208.678824) can0 015#057FF17FF7FF301E
(1790667208.678868) can1 014#0481877FF7F92D16
(1790667208.678937) can0 016#0680367FF7FE291B
(1790667208.678980) can1 015#05809E7FF7FE201C
(1790667208.679091) can1 016#067F117FF7FB221A
(1790667208.685548) can0 004#8000800000000800
(1790667208.685549) can0 005#8000800000000800
(1790667208.685587) can0 006#8000800000000800
(1790667208.685588) can0 001#8000800000000800
(1790667208.685627) can0 002#8000800000000800
(1790667208.685627) can0 003#8000800000000800
(1790667208.685670) can1 004#8000800000000800
(1790667208.685752) can1 005#8000800000000800
(1790667208.685836) can1 006#8000800000000800
(1790667208.685935) can1 001#8000800000000800
(1790667208.686016) can1 002#8000800000000800
(1790667208.686097) can1 003#8000800000000800
(1790667208.686351) can0 011#0180427FF804211D
(1790667208.686464) can0 012#02821F7FF80A2F1F
(1790667208.686517) can1 011#01802D7FF800221C
(1790667208.686593) can0 013#0380137FF800221B
(1790667208.686636) can1 012#0280017FF800201B
(1790667208.686724) can0 014#0480057FF8082D1F
(1790667208.686767) can1 013#037FF17FF8091E1A
(1790667208.686840) can0 015#057FF17FF7FC301E
(1790667208.686883) can1 014#0481877FF7F82D16
(1790667208.686944) can0 016#0680367FF7F4291B
(1790667208.686997) can1 015#05809E7FF7FA201C
(1790667208.687096) can1 016#067F117FF804221A
(1790667208.693486) can0 004#8000800000000800
(1790667208.693523) can0 005#8000800000000800
(1790667208.693585) can0 006#8000800000000800
(1790667208.693586) can0 001#8000800000000800
(1790667208.693611) can0 002#8000800000000800
(1790667208.693611) can0 003#8000800000000800
(1790667208.693646) can1 004#8000800000000800
(1790667208.693725) can1 005#8000800000000800
(1790667208.693809) can1 006#8000800000000800
(1790667208.693891) can1 001#8000800000000800
(1790667208.693973) can1 002#8000800000000800
(1790667208.694059) can1 003#8000800000000800
(1790667208.694345) can0 011#0180427FF7F7211D
(1790667208.694448) can0 012#02821F7FF8032F1F
(1790667208.694497) can1 011#01802D7FF801221C
(1790667208.694572) can0 013#0380137FF7FA221B
(1790667208.694624) can1 012#0280017FF801201B
(1790667208.694687) can0 014#0480057FF7FE2D1F
(1790667208.694737) can1 013#037FF17FF80C1E1A
(1790667208.694819) can0 015#057FF17FF7EF301E
(1790667208.694868) can1 014#0481877FF7F32D16
(1790667208.694922) can0 016#0680367FF7FE291B
(1790667208.694973) can1 015#05809E7FF7FA211C
(1790667208.695095) can1 016#067F117FF801221A
(1790667208.701550) can0 004#8000800000000800
(1790667208.701554) can0 005#8000800000000800
(1790667208.701587) can0 006#8000800000000800
(1790667208.701588) can0 001#8000800000000800
(1790667208.701628) can0 002#8000800000000800
(1790667208.701629) can0 003#8000800000000800
(1790667208.701676) can1 004#8000800000000800
(1790667208.701755) can1 005#8000800000000800
(1790667208.701837) can1 006#8000800000000800
(1790667208.701935) can1 001#8000800000000800
(1790667208.702016) can1 002#8000800000000800
(1790667208.702097) can1 003#8000800000000800
(1790667208.702344) can0 011#0180427FE7FC211D
(1790667208.702474) can0 012#02821F7FF8022F1F
(1790667208.702514) can1 011#01802D7FF7FE221C
(1790667208.702590) can0 013#0380137FF7FD221B
(1790667208.702642) can1 012#0280017FF800201B
(1790667208.702720) can0 014#0480057FF8022D1F
(1790667208.702763) can1 013#037FF17FF8051E1A
(1790667208.702824) can0 015#057FF17FF812301E
(1790667208.702889) can1 014#0481877FF8032E16
(1790667208.702939) can0 016#0680367FF7FB291B
(1790667208.702991) can1 015#05809E7FF804201C
(1790667208.703111) can1 016#067F117FF7FD221A
(1790667208.709549) can0 004#8000800000000800
(1790667208.709552) can0 005#8000800000000800
(1790667208.709587) can0 006#8000800000000800
(1790667208.709587) can0 001#8000800000000800
(1790667208.709628) can0 002#8000800000000800
(1790667208.709629) can0 003#8000800000000800
(1790667208.709671) can1 004#8000800000000800
(1790667208.709750) can1 005#8000800000000800
(1790667208.709836) can1 006#8000800000000800
(1790667208.709934) can1 001#8000800000000800
(1790667208.710015) can1 002#8000800000000800
(1790667208.710096) can1 003#8000800000000800
(1790667208.710354) can0 011#0180427FF807211D
(1790667208.710463) can0 012#02821F7FF7FF2F1F
(1790667208.710515) can1 011#01802D7FF800221C
(1790667208.710593) can0 013#0380137FF80A221B
(1790667208.710637) can1 012#0280017FF801201B
(1790667208.710724) can0 014#0480057FF80B2D1F
(1790667208.710768) can1 013#037FF17FF80A1E1A
(1790667208.710838) can0 015#057FF17FF800301E
(1790667208.710882) can1 014#0481877FF7FB2D16
(1790667208.710943) can0 016#0680367FF800291B
(1790667208.711012) can1 015#05809E7FF803201C
(1790667208.711094) can1 016#067F117FF806221A
(1790667208.717557) can0 004#8000800000000800
(1790667208.717566) can0 005#8000800000000800
(1790667208.717589) can0 006#8000800000000800
(1790667208.717590) can0 001#8000800000000800
(1790667208.717631) can0 002#8000800000000800
(1790667208.717632) can0 003#8000800000000800
(1790667208.717676) can1 004#8000800000000800
(1790667208.717752) can1 005#8000800000000800
(1790667208.717836) can1 006#8000800000000800
(1790667208.717935) can1 001#8000800000000800
(1790667208.718017) can1 002#8000800000000800
(1790667208.718096) can1 003#8000800000000800
(1790667208.718352) can0 011#0180427FF80A211D
(1790667208.718487) can0 012#02821F7FF8002F1F
(1790667208.718522) can1 011#01802D7FF807221C
(1790667208.718592) can0 013#0380137FF7FD221B
(1790667208.718643) can1 012#0280017FF800201B
(1790667208.718719) can0 014#0480057FF7FC2D1F
(1790667208.718756) can1 013#037FF17FF8001E1A
(1790667208.718843) can0 015#057FF17FF805301E
(1790667208.718888) can1 014#0481877FF7FC2E16
(1790667208.718942) can0 016#0680367FF80E291B
(1790667208.718994) can1 015#05809E7FF7F6211C
(1790667208.719112) can1 016#067F117FF801221A
(1790667208.725553) can0 004#8000800000000800
(1790667208.725555) can0 005#8000800000000800
(1790667208.725590) can0 006#8000800000000800
(1790667208.725591) can0 001#8000800000000800
(1790667208.725628) can0 002#8000800000000800
(1790667208.725674) can0 003#8000800000000800
(1790667208.725674) can1 004#8000800000000800
(1790667208.725714) can1 005#8000800000000800
(1790667208.725794) can1 006#8000800000000800
(1790667208.725873) can1 001#8000800000000800
(1790667208.725962) can1 002#8000800000000800
(1790667208.726056) can1 003#8000800000000800
(1790667208.726346) can0 011#0180427FF810211D
(1790667208.726475) can0 012#02821F7FF8012F1F
(1790667208.726536) can1 011#01802D7FF7FC221C
(1790667208.726588) can0 013#0380137FF800221B
(1790667208.726640) can1 012#0280017FF800201B
(1790667208.726718) can0 014#0480057FF7FB2D1F
(1790667208.726770) can1 013#037FF17FF8041E1A
(1790667208.726848) can0 015#057FF17FF7F4301E
(1790667208.726899) can1 014#0481877FF7FD2D16
(1790667208.726952) can0 016#0680367FF7FF291B
(1790667208.727014) can1 015#05809E7FF7FE201C
(1790667208.727143) can1 016#067F117FF7FC221A
(1790667208.733548) can0 004#8000800000000800
(1790667208.733551) can0 005#8000800000000800
(1790667208.733585) can0 006#8000800000000800
(1790667208.733586) can0 001#8000800000000800
(1790667208.733624) can0 002#8000800000000800
(1790667208.733666) can0 003#8000800000000800
(1790667208.733710) can1 004#8000800000000800
(1790667208.733790) can1 005#8000800000000800
(1790667208.733870) can1 006#8000800000000800
(1790667208.733960) can1 001#8000800000000800
(1790667208.734058) can1 002#8000800000000800
(1790667208.734139) can1 003#8000800000000800
(1790667208.734351) can0 011#0180427FF80A211D
(1790667208.734462) can0 012#02821F7FF7F82F1F
(1790667208.734515) can1 011#01802D7FF7F1221C
(1790667208.734592) can0 013#0380137FF7F9221B
(1790667208.734644) can1 012#0280017FF7FF201B
(1790667208.734721) can0 014#0480057FF7FD2D1F
(1790667208.734771) can1 013#037FF17FF8001E1A
(1790667208.734821) can0 015#057FF17FF805301E
(1790667208.734872) can1 014#0481877FF8062D16
(1790667208.734937) can0 016#0680367FF7F4291B
(1790667208.735018) can1 015#05809E7FF802201C
(1790667208.735115) can1 016#067F117FF803221A
(1790667208.741498) can0 004#8000800000000800
(1790667208.741519) can0 005#8000800000000800
(1790667208.741564) can0 006#8000800000000800
(1790667208.741565) can0 001#8000800000000800
(1790667208.741611) can0 002#8000800000000800
(1790667208.741650) can0 003#8000800000000800
(1790667208.741651) can1 004#8000800000000800
(1790667208.741722) can1 005#8000800000000800
(1790667208.741810) can1 006#8000800000000800
(1790667208.741892) can1 001#8000800000000800
(1790667208.741979) can1 002#8000800000000800
(1790667208.742060) can1 003#8000800000000800
(1790667208.742321) can0 011#0180427FF804211D
(1790667208.742450) can0 012#02821F7FF8052F1F
(1790667208.742515) can1 011#01802D7FF7FB221C
(1790667208.742564) can0 013#0380137FF7F6221B
(1790667208.742616) can1 012#0280017FF800201B
(1790667208.742694) can0 014#0480057FF7FD2D1F
(1790667208.742748) can1 013#037FF17FF7FC1E1A
(1790667208.742802) can0 015#057FF17FF7FF301E
(1790667208.742852) can1 014#0481877FF7F62D16
(1790667208.742938) can0 016#0680367FF7FE291B
(1790667208.742981) can1 015#05809E7FF800211C
(1790667208.743096) can1 016#067F117FF7FD221A
(1790667208.749554) can0 004#8000800000000800
(1790667208.749556) can0 005#8000800000000800
(1790667208.749592) can0 006#8000800000000800
(1790667208.749592) can0 001#8000800000000800
(1790667208.749630) can0 002#8000800000000800
(1790667208.749675) can0 003#8000800000000800
(1790667208.749676) can1 004#8000800000000800
(1790667208.749715) can1 005#8000800000000800
(1790667208.749794) can1 006#8000800000000800
(1790667208.749874) can1 001#8000800000000800
(1790667208.749961) can1 002#8000800000000800
(1790667208.750043) can1 003#8000800000000800
(1790667208.750350) can0 011#0180427FF814211D
(1790667208.750490) can0 012#02821F7FF8082F1F
(1790667208.750534) can1 011#01802D7FF801221C
(1790667208.750593) can0 013#0380137FF7FF221B
(1790667208.750647) can1 012#0280017FF800201B
(1790667208.750723) can0 014#0480057FF8042D1F
(1790667208.750775) can1 013#037FF17FF7FC1E1A
(1790667208.750853) can0 015#057FF17FF7F9301E
(1790667208.750889) can1 014#0481877FF7F62D16
(1790667208.750965) can0 016#0680367FF7FE291B
(1790667208.751016) can1 015#05809E7FF7EB201C
(1790667208.751139) can1 016#067F117FF7FD221A
(1790667208.757550) can0 004#8000800000000800
(1790667208.757554) can0 005#8000800000000800
(1790667208.757587) can0 006#8000800000000800
(1790667208.757587) can0 001#8000800000000800
(1790667208.757628) can0 002#8000800000000800
(1790667208.757629) can0 003#8000800000000800
(1790667208.757671) can1 004#8000800000000800
(1790667208.757749) can1 005#8000800000000800
(1790667208.757835) can1 006#8000800000000800
(1790667208.757918) can1 001#8000800000000800
(1790667208.757999) can1 002#8000800000000800
(1790667208.758079) can1 003#8000800000000800
(1790667208.758366) can0 011#0180427FF80C211D
(1790667208.758463) can0 012#02821F7FF7FC2F1F
(1790667208.758515) can1 011#01802D7FF7FD221C
(1790667208.758590) can0 013#0380137FF7F9221B
(1790667208.758640) can1 012#0280017FF801201B
(1790667208.758715) can0 014#0480057FF7FD2D1F
(1790667208.758758) can1 013#037FF17FF8061E1A
(1790667208.758841) can0 015#057FF18007F9301E
(1790667208.758883) can1 014#0481877FF7F72D16
(1790667208.758941) can0 016#0680367FF800291B
(1790667208.758991) can1 015#05809E7FF7FA211C
(1790667208.759093) can1 016#067F117FF802221A
(1790667208.765486) can0 004#8000800000000800
(1790667208.765523) can0 005#8000800000000800
(1790667208.765567) can0 006#8000800000000800
(1790667208.765568) can0 001#8000800000000800
(1790667208.765610) can0 002#8000800000000800
(1790667208.765611) can0 003#8000800000000800
(1790667208.765647) can1 004#8000800000000800
(1790667208.765726) can1 005#8000800000000800
(1790667208.765809) can1 006#8000800000000800
(1790667208.765890) can1 001#8000800000000800
(1790667208.765975) can1 002#8000800000000800
(1790667208.766057) can1 003#8000800000000800
(1790667208.766347) can0 011#0180427FF7FA211D
(1790667208.766450) can0 012#02821F7FF8042F1F
(1790667208.766515) can1 011#01802D7FF809221C
(1790667208.766564) can0 013#0380137FF803221B
(1790667208.766616) can1 012#0280017FF800201B
(1790667208.766694) can0 014#0480057FF7FC2D1F
(1790667208.766751) can1 013#037FF17FF8001E1A
(1790667208.766824) can0 015#057FF17FF7FB301E
(1790667208.766868) can1 014#0481877FF7F72D16
(1790667208.766940) can0 016#0680367FF802291B
(1790667208.766990) can1 015#05809E7FF7FC201C
(1790667208.767096) can1 016#067F117FF800221A
(1790667208.773498) can0 004#8000800000000800
(1790667208.773543) can0 005#8000800000000800
(1790667208.773544) can0 006#8000800000000800
(1790667208.773576) can0 001#8000800000000800
(1790667208.773577) can0 002#8000800000000800
(1790667208.773617) can0 003#8000800000000800
(1790667208.773662) can1 004#8000800000000800
(1790667208.773745) can1 005#8000800000000800
(1790667208.773836) can1 006#8000800000000800
(1790667208.773935) can1 001#8000800000000800
(1790667208.774016) can1 002#8000800000000800
(1790667208.774095) can1 003#8000800000000800
(1790667208.774355) can0 011#0180427FE813211D
(1790667208.774462) can0 012#02821F7FF8022F1F
(1790667208.774506) can1 011#01802D7FF80D221C
(1790667208.774592) can0 013#0380137FF807221B
(1790667208.774636) can1 012#0280017FF801201B
(1790667208.774696) can0 014#0480057FF7F92D1F
(1790667208.774749) can1 013#037FF17FF7F11E1A
(1790667208.774812) can0 015#057FF17FF801301E
(1790667208.774864) can1 014#0481877FF7FB2D16
(1790667208.774942) can0 016#0680367FF800291B
(1790667208.774986) can1 015#05809E7FF7F4211C
(1790667208.775093) can1 016#067F117FF801221A
(1790667208.781481) can0 004#8000800000000800
(1790667208.781518) can0 005#8000800000000800
(1790667208.781562) can0 006#8000800000000800
(1790667208.781562) can0 001#8000800000000800
(1790667208.781606) can0 002#8000800000000800
(1790667208.781606) can0 003#8000800000000800
(1790667208.781640) can1 004#8000800000000800
(1790667208.781723) can1 005#8000800000000800
(1790667208.781808) can1 006#8000800000000800
(1790667208.781890) can1 001#8000800000000800
(1790667208.781973) can1 002#8000800000000800
(1790667208.782057) can1 003#8000800000000800
(1790667208.782323) can0 011#0180427FF809211D
(1790667208.782436) can0 012#02821F7FF8032F1F
(1790667208.782488) can1 011#01802D7FF80E221C
(1790667208.782566) can0 013#0380137FF802221B
(1790667208.782618) can1 012#0280017FF7FD201B
(1790667208.782696) can0 014#0480057FF7FD2D1F
(1790667208.782742) can1 013#037FF17FF8081E1A
(1790667208.782800) can0 015#057FF17FF7F8301E
(1790667208.782852) can1 014#0481877FF7F62D16
(1790667208.782936) can0 016#0680367FF80A291B
(1790667208.782980) can1 015#05809E7FF7FE201C
(1790667208.783092) can1 016#067F117FF801221A
(1790667208.789454) can0 004#8000800000000800
(1790667208.789492) can0 005#8000800000000800
(1790667208.789538) can0 006#8000800000000800
(1790667208.789539) can0 001#8000800000000800
(1790667208.789572) can0 002#8000800000000800
(1790667208.789615) can0 003#8000800000000800
(1790667208.789658) can1 004#8000800000000800
(1790667208.789738) can1 005#8000800000000800
(1790667208.789819) can1 006#8000800000000800
(1790667208.789905) can1 001#8000800000000800
(1790667208.789989) can1 002#8000800000000800
(1790667208.790069) can1 003#8000800000000800
(1790667208.790319) can0 011#0180427FF7FB211D
(1790667208.790425) can0 012#02821F7FF8042F1F
(1790667208.790475) can1 011#01802D7FF803221C
(1790667208.790539) can0 013#0380137FF7F8221B
(1790667208.790613) can1 012#0280017FF800201B
(1790667208.790666) can0 014#0480057FF7FB2D1F
(1790667208.790717) can1 013#037FF17FF8011E1A
(1790667208.790795) can0 015#057FF17FF7F6301E
(1790667208.790847) can1 014#0481877FF7F82D16
(1790667208.790899) can0 016#0680367FF80C291B
(1790667208.790951) can1 015#05809E7FF802201C
(1790667208.791087) can1 016#067F117FF7FF221A
(1790667208.797528) can0 004#8000800000000800
(1790667208.797564) can0 005#8000800000000800
(1790667208.797564) can0 006#8000800000000800
(1790667208.797598) can0 001#8000800000000800
(1790667208.797598) can0 002#8000800000000800
(1790667208.797637) can0 003#8000800000000800
(1790667208.797677) can1 004#8000800000000800
(1790667208.797761) can1 005#8000800000000800
(1790667208.797840) can1 006#8000800000000800
(1790667208.797935) can1 001#8000800000000800
(1790667208.798016) can1 002#8000800000000800
(1790667208.798096) can1 003#8000800000000800
(1790667208.798368) can0 011#0180427FF807211D
(1790667208.798475) can0 012#02821F7FF7F42F1F
(1790667208.798508) can1 011#01802D7FF7F5221C
(1790667208.798614) can0 013#0380137FF7FA221B
(1790667208.798656) can1 012#0280017FF801201B
(1790667208.798717) can0 014#0480057FF8112D1F
(1790667208.798762) can1 013#037FF17FF8021E1A
(1790667208.798847) can0 015#057FF17FF805301E
(1790667208.798890) can1 014#0481877FF7F52D16
(1790667208.798961) can0 016#0680367FF804291B
(1790667208.799005) can1 015#05809E7FF7F8211C
(1790667208.799091) can1 016#067F117FF806221A
(1790667208.805458) can0 004#8000800000000800
(1790667208.805497) can0 005#8000800000000800
(1790667208.805538) can0 006#8000800000000800
(1790667208.805539) can0 001#8000800000000800
(1790667208.805576) can0 002#8000800000000800
(1790667208.805619) can0 003#8000800000000800
(1790667208.805665) can1 004#8000800000000800
(1790667208.805743) can1 005#8000800000000800
(1790667208.805835) can1 006#8000800000000800
(1790667208.805933) can1 001#8000800000000800
(1790667208.806015) can1 002#8000800000000800
(1790667208.806094) can1 003#8000800000000800
(1790667208.806318) can0 011#0180427FF80C211D
(1790667208.806422) can0 012#02821F7FF7FF2F1F
(1790667208.806474) can1 011#01802D7FF803221C
(1790667208.806535) can0 013#0380137FF802221B
(1790667208.806613) can1 012#0280017FF801201B
(1790667208.806665) can0 014#0480057FF7F82D1F
(1790667208.806717) can1 013#037FF17FF8061E1A
(1790667208.806795) can0 015#057FF17FF802301E
(1790667208.806847) can1 014#0481878007FC2D16
(1790667208.806899) can0 016#0680367FF7FE291B
(1790667208.806951) can1 015#05809E7FF7F7201C
(1790667208.807087) can1 016#067F117FF7FB221A
(1790667208.813453) can0 004#8000800000000800
(1790667208.813491) can0 005#8000800000000800
(1790667208.813537) can0 006#8000800000000800
(1790667208.813537) can0 001#8000800000000800
(1790667208.813571) can0 002#8000800000000800
(1790667208.813613) can0 003#8000800000000800
(1790667208.813657) can1 004#8000800000000800
(1790667208.813736) can1 005#8000800000000800
(1790667208.813817) can1 006#8000800000000800
(1790667208.813896) can1 001#8000800000000800
(1790667208.813940) can1 002#8000800000000800
(1790667208.814017) can1 003#8000800000000800
(1790667208.814295) can0 011#0180427FF805211D
(1790667208.814423) can0 012#02821F7FF8022F1F
(1790667208.814476) can1 011#01802D7FF802221C
(1790667208.814536) can0 013#0380137FF80B221B
(1790667208.814588) can1 012#0280017FF802201B
(1790667208.814666) can0 014#0480057FF7FF2D1F
(1790667208.814720) can1 013#037FF17FF80B1E1A
(1790667208.814797) can0 015#057FF17FF7FC301E
(1790667208.814849) can1 014#0481877FF7FA2D16
(1790667208.814901) can0 016#0680367FF7F8291B
(1790667208.814955) can1 015#05809E7FF7F5201C
(1790667208.815061) can1 016#067F117FF7FD221A
(1790667208.821551) can0 004#8000800000000800
(1790667208.821557) can0 005#8000800000000800
(1790667208.821587) can0 006#8000800000000800
(1790667208.821588) can0 001#8000800000000800
(1790667208.821630) can0 002#8000800000000800
(1790667208.821633) can0 003#8000800000000800
(1790667208.821669) can1 004#8000800000000800
(1790667208.821755) can1 005#8000800000000800
(1790667208.821836) can1 006#8000800000000800
(1790667208.821933) can1 001#8000800000000800
(1790667208.822015) can1 002#8000800000000800
(1790667208.822098) can1 003#8000800000000800
(1790667208.822351) can0 011#0180427FF809211D
(1790667208.822488) can0 012#02821F7FF8092F1F
(1790667208.822534) can1 011#01802D7FF7FB221C
(1790667208.822592) can0 013#0380137FF7FE221B
(1790667208.822636) can1 012#0280017FF801201B
(1790667208.822722) can0 014#0480057FF7FC2D1F
(1790667208.822767) can1 013#037FF17FF8071E1A
(1790667208.822837) can0 015#057FF17FF80A301E
(1790667208.822880) can1 014#0481877FF8002D16
(1790667208.822942) can0 016#0680367FF7F7291B
(1790667208.822994) can1 015#05809E7FF7F5201C
(1790667208.823113) can1 016#067F117FF800221A
(1790667208.829465) can0 004#8000800000000800
(1790667208.829500) can0 005#8000800000000800
(1790667208.829572) can0 006#8000800000000800
(1790667208.829573) can0 001#8000800000000800
(1790667208.829584) can0 002#8000800000000800
(1790667208.829625) can0 003#8000800000000800
(1790667208.829626) can1 004#8000800000000800
(1790667208.829702) can1 005#8000800000000800
(1790667208.829785) can1 006#8000800000000800
(1790667208.829865) can1 001#8000800000000800
(1790667208.829946) can1 002#8000800000000800
(1790667208.830029) can1 003#8000800000000800
(1790667208.830318) can0 011#0180427FF80E211D
(1790667208.830422) can0 012#02821F7FF8042F1F
(1790667208.830474) can1 011#01802D7FF7FB221C
(1790667208.830535) can0 013#0380137FF804221B
(1790667208.830587) can1 012#0280017FF803201B
(1790667208.830665) can0 014#0480057FF7FB2D1F
(1790667208.830717) can1 013#037FF17FF8051E1A
(1790667208.830795) can0 015#057FF17FF7F9301E
(1790667208.830838) can1 014#0481877FF7F72D16
(1790667208.830899) can0 016#0680367FF7FF291B
(1790667208.830951) can1 015#05809E7FF7FE201C
(1790667208.831061) can1 016#067F117FF802221A
(1790667208.837464) can0 004#8000800000000800
(1790667208.837502) can0 005#8000800000000800
(1790667208.837544) can0 006#8000800000000800
(1790667208.837544) can0 001#8000800000000800
(1790667208.837584) can0 002#8000800000000800
(1790667208.837584) can0 003#8000800000000800
(1790667208.837627) can1 004#8000800000000800
(1790667208.837710) can1 005#8000800000000800
(1790667208.837793) can1 006#8000800000000800
(1790667208.837875) can1 001#8000800000000800
(1790667208.837961) can1 002#8000800000000800
(1790667208.838058) can1 003#8000800000000800
(1790667208.838324) can0 011#0180427FF814211D
(1790667208.838426) can0 012#02821F7FF7FF2F1F
(1790667208.838478) can1 011#01802D7FF805221C
(1790667208.838562) can0 013#0380137FF800221B
(1790667208.838604) can1 012#0280017FF7FF201B
(1790667208.838666) can0 014#0480057FF7FD2C1F
(1790667208.838716) can1 013#037FF17FF7FC1E1A
(1790667208.838800) can0 015#057FF180080A301E
(1790667208.838834) can1 014#0481877FF7FA2D16
(1790667208.838925) can0 016#0680367FF7FF291B
(1790667208.838969) can1 015#05809E7FF7F2211C
(1790667208.839060) can1 016#067F117FF803221A
(1790667208.845519) can0 004#8000800000000800
(1790667208.845550) can0 005#8000800000000800
(1790667208.845594) can0 006#8000800000000800
(1790667208.845595) can0 001#8000800000000800
(1790667208.845631) can0 002#8000800000000800
(1790667208.845677) can0 003#8000800000000800
(1790667208.845678) can1 004#8000800000000800
(1790667208.845755) can1 005#8000800000000800
(1790667208.845830) can1 006#8000800000000800
(1790667208.845914) can1 001#8000800000000800
(1790667208.845993) can1 002#8000800000000800
(1790667208.846079) can1 003#8000800000000800
(1790667208.846370) can0 011#0180427FF81E211D
(1790667208.846474) can0 012#02821F7FF8032F1F
(1790667208.846514) can1 011#01802D7FF805221C
(1790667208.846592) can0 013#0380137FF7FF221B
(1790667208.846643) can1 012#0280017FF7FF201B
(1790667208.846719) can0 014#0480057FF8082D1F
(1790667208.846771) can1 013#037FF17FF7FC1E1A
(1790667208.846849) can0 015#057FF17FF802301E
(1790667208.846888) can1 014#0481877FF8022D16
(1790667208.846965) can0 016#0680367FF806291B
(1790667208.847017) can1 015#05809E7FF803201C
(1790667208.847140) can1 016#067F117FF806221A
(1790667208.853471) can0 004#8000800000000800
(1790667208.853507) can0 005#8000800000000800
(1790667208.853550) can0 006#8000800000000800
(1790667208.853551) can0 001#8000800000000800
(1790667208.853593) can0 002#8000800000000800
(1790667208.853594) can0 003#8000800000000800
(1790667208.853643) can1 004#8000800000000800
(1790667208.853718) can1 005#8000800000000800
(1790667208.853809) can1 006#8000800000000800
(1790667208.853890) can1 001#8000800000000800
(1790667208.853973) can1 002#8000800000000800
(1790667208.854056) can1 003#8000800000000800
(1790667208.854323) can0 011#0180427FF817211D
(1790667208.854436) can0 012#02821F7FF8052F1F
(1790667208.854488) can1 011#01802D7FF7FD221C
(1790667208.854566) can0 013#0380137FF7F9221B
(1790667208.854609) can1 012#0280017FF7FF201B
(1790667208.854670) can0 014#0480057FF8002D1F
(1790667208.854722) can1 013#037FF17FF8061E1A
(1790667208.854800) can0 015#057FF17FF80F301E
(1790667208.854851) can1 014#0481877FF8082D16
(1790667208.854909) can0 016#0680367FF7FC291B
(1790667208.854962) can1 015#05809E7FF7EE211C
(1790667208.855066) can1 016#067F117FF7FA221A
(1790667208.861552) can0 004#8000800000000800
(1790667208.861553) can0 005#8000800000000800
(1790667208.861591) can0 006#8000800000000800
(1790667208.861591) can0 001#8000800000000800
(1790667208.861631) can0 002#8000800000000800
(1790667208.861673) can0 003#8000800000000800
(1790667208.861674) can1 004#8000800000000800
(1790667208.861751) can1 005#8000800000000800
(1790667208.861834) can1 006#8000800000000800
(1790667208.861933) can1 001#8000800000000800
(1790667208.862015) can1 002#8000800000000800
(1790667208.862095) can1 003#8000800000000800
(1790667208.862351) can0 011#0180427FF80E211D
(1790667208.862488) can0 012#02821F7FF8002F1F
(1790667208.862540) can1 011#01802D7FF806221C
(1790667208.862590) can0 013#0380137FF7F9221B
(1790667208.862641) can1 012#0280017FF7FF201B
(1790667208.862716) can0 014#0480057FF7FD2D1F
(1790667208.862842) can0 015#057FF17FF805301E
(1790667208.862771) can1 013#037FF17FF7FE1E1A
(1790667208.862891) can1 014#0481877FF7FB2E16
(1790667208.862967) can0 016#0680367FF801291B
(1790667208.863015) can1 015#05809E7FF7F7201C
(1790667208.863139) can1 016#067F117FF7FB221A
(1790667208.869488) can0 004#8000800000000800
(1790667208.869523) can0 005#8000800000000800
(1790667208.869566) can0 006#8000800000000800
(1790667208.869566) can0 001#8000800000000800
(1790667208.869606) can0 002#8000800000000800
(1790667208.869607) can0 003#8000800000000800
(1790667208.869646) can1 004#8000800000000800
(1790667208.869726) can1 005#8000800000000800
(1790667208.869808) can1 006#8000800000000800
(1790667208.869890) can1 001#8000800000000800
(1790667208.869975) can1 002#8000800000000800
(1790667208.870057) can1 003#8000800000000800
(1790667208.870330) can0 011#0180427FF809211D
(1790667208.870462) can0 012#02821F7FF8042F1F
(1790667208.870508) can1 011#01802D7FF802221C
(1790667208.870566) can0 013#0380137FF80B221B
(1790667208.870627) can1 012#0280017FF801201B
(1790667208.870698) can0 014#0480057FF7FB2D1F
(1790667208.870757) can1 013#037FF17FF7EB1E1A
(1790667208.870827) can0 015#057FF17FF7FD301E
(1790667208.870871) can1 014#0481877FF8012D16
(1790667208.870937) can0 016#0680367FF7FC291B
(1790667208.870979) can1 015#05809E7FF7FB201C
(1790667208.871092) can1 016#067F117FF7FD221A
(1790667208.877493) can0 004#8000800000000800
(1790667208.877521) can0 005#8000800000000800
(1790667208.877573) can0 006#8000800000000800
(1790667208.877574) can0 001#8000800000000800
(1790667208.877608) can0 002#8000800000000800
(1790667208.877608) can0 003#8000800000000800
(1790667208.877643) can1 004#8000800000000800
(1790667208.877728) can1 005#8000800000000800
(1790667208.877809) can1 006#8000800000000800
(1790667208.877892) can1 001#8000800000000800
(1790667208.877969) can1 002#8000800000000800
(1790667208.878056) can1 003#8000800000000800
(1790667208.878323) can0 011#0180427FF7FD211D
(1790667208.878450) can0 012#02821F7FF7FF2F1F
(1790667208.878513) can1 011#01802D8007FC221C
(1790667208.878562) can0 013#0380137FF817221B
(1790667208.878614) can1 012#0280017FF7FD201B
(1790667208.878689) can0 014#0480057FF7FE2D1F
(1790667208.878743) can1 013#037FF17FF8021F1A
(1790667208.878818) can0 015#057FF17FF7F8301E
(1790667208.878862) can1 014#0481877FF7F82D16
(1790667208.878917) can0 016#0680367FF80C291B
(1790667208.878973) can1 015#05809E7FF805201C
(1790667208.879084) can1 016#067F117FF7FE221A
(1790667208.885458) can0 004#8000800000000800
(1790667208.885500) can0 005#8000800000000800
(1790667208.885501) can0 006#8000800000000800
(1790667208.885541) can0 001#8000800000000800
(1790667208.885541) can0 002#8000800000000800
(1790667208.885576) can0 003#8000800000000800
(1790667208.885621) can1 004#8000800000000800
(1790667208.885709) can1 005#8000800000000800
(1790667208.885808) can1 006#8000800000000800
(1790667208.885889) can1 001#8000800000000800
(1790667208.885972) can1 002#8000800000000800
(1790667208.886056) can1 003#8000800000000800
(1790667208.886297) can0 011#0180427FF805211D
(1790667208.886409) can0 012#02821F7FF7FF2F1F
(1790667208.886461) can1 011#01802D7FF7F8221C
(1790667208.886539) can0 013#0380137FF7FE221B
(1790667208.886591) can1 012#0280017FF800201B
(1790667208.886670) can0 014#0480057FF7FE2D1F
(1790667208.886713) can1 013#037FF17FF8031E1A
(1790667208.886774) can0 015#057FF17FF804301E
(1790667208.886827) can1 014#0481877FF7F82D16
(1790667208.886911) can0 016#0680367FF806291B
(1790667208.886954) can1 015#05809E7FF7FD211C
(1790667208.887037) can1 016#067F117FF804221A
(1790667208.893478) can0 004#8000800000000800
(1790667208.893517) can0 005#8000800000000800
(1790667208.893559) can0 006#8000800000000800
(1790667208.893559) can0 001#8000800000000800
(1790667208.893602) can0 002#8000800000000800
(1790667208.893602) can0 003#8000800000000800
(1790667208.893638) can1 004#8000800000000800
(1790667208.893723) can1 005#8000800000000800
(1790667208.893809) can1 006#8000800000000800
(1790667208.893890) can1 001#8000800000000800
(1790667208.893973) can1 002#8000800000000800
(1790667208.894057) can1 003#8000800000000800
(1790667208.894322) can0 011#0180427FF80C211D
(1790667208.894436) can0 012#02821F7FF8032F1F
(1790667208.894487) can1 011#01802D7FF80F221C
(1790667208.894565) can0 013#0380137FF805221B
(1790667208.894617) can1 012#0280017FF802201B
(1790667208.894695) can0 014#0480057FF8052D1F
(1790667208.894740) can1 013#037FF17FF8081E1A
(1790667208.894800) can0 015#057FF17FF807301E
(1790667208.894852) can1 014#0481877FF7FA2D16
(1790667208.894936) can0 016#0680367FF7F8291B
(1790667208.894978) can1 015#05809E7FF7FD201C
(1790667208.895092) can1 016#067F117FF802221A
(1790667208.901458) can0 004#8000800000000800
(1790667208.901497) can0 005#8000800000000800
(1790667208.901540) can0 006#8000800000000800
(1790667208.901540) can0 001#8000800000000800
(1790667208.901580) can0 002#8000800000000800
(1790667208.901580) can0 003#8000800000000800
(1790667208.901622) can1 004#8000800000000800
(1790667208.901709) can1 005#8000800000000800
(1790667208.901791) can1 006#8000800000000800
(1790667208.901916) can1 001#8000800000000800
(1790667208.901981) can1 002#8000800000000800
(1790667208.902062) can1 003#8000800000000800
(1790667208.902314) can0 011#0180427FE806211D
(1790667208.902414) can0 012#02821F7FF7FC2F1F
(1790667208.902464) can1 011#01802D7FF7F8221C
(1790667208.902539) can0 013#0380137FF802221B
(1790667208.902589) can1 012#0280017FF801201B
(1790667208.902664) can0 014#0480057FF7FA2D1F
(1790667208.902707) can1 013#037FF17FF7FB1E1A
(1790667208.902789) can0 015#057FF17FF7FC301E
(1790667208.902832) can1 014#0481877FF7F62D16
(1790667208.902889) can0 016#0680367FF807291B
(1790667208.902939) can1 015#05809E7FF7DD211C
(1790667208.903065) can1 016#067F117FF80B221A
(1790667208.909480) can0 004#8000800000000800
(1790667208.909516) can0 005#8000800000000800
(1790667208.909560) can0 006#8000800000000800
(1790667208.909561) can0 001#8000800000000800
(1790667208.909602) can0 002#8000800000000800
(1790667208.909603) can0 003#8000800000000800
(1790667208.909638) can1 004#8000800000000800
(1790667208.909722) can1 005#8000800000000800
(1790667208.909806) can1 006#8000800000000800
(1790667208.909889) can1 001#8000800000000800
(1790667208.909972) can1 002#8000800000000800
(1790667208.910056) can1 003#8000800000000800
(1790667208.910322) can0 011#0180427FF7FD211D
(1790667208.910435) can0 012#02821F7FF7FE2F1F
(1790667208.910488) can1 011#01802D7FF807221C
(1790667208.910565) can0 013#0380137FF805221B
(1790667208.910617) can1 012#0280017FF803201B
(1790667208.910695) can0 014#0480057FF7FA2D1F
(1790667208.910749) can1 013#037FF17FF8001E1A
(1790667208.910800) can0 015#057FF17FF7FC301E
(1790667208.910851) can1 014#0481877FF8002E16
(1790667208.910936) can0 016#0680367FF7FF291B
(1790667208.911090) can1 015#05809E7FF7F8201C
(1790667208.911097) can1 016#067F117FF805221A
(1790667208.917536) can0 004#8000800000000800
(1790667208.917576) can0 005#8000800000000800
(1790667208.917577) can0 006#8000800000000800
(1790667208.917608) can0 001#8000800000000800
(1790667208.917648) can0 002#8000800000000800
(1790667208.917690) can0 003#8000800000000800
(1790667208.917736) can1 004#8000800000000800
(1790667208.917827) can1 005#8000800000000800
(1790667208.917909) can1 006#8000800000000800
(1790667208.917995) can1 001#8000800000000800
(1790667208.918075) can1 002#8000800000000800
(1790667208.918153) can1 003#8000800000000800
(1790667208.918372) can0 011#0180427FF7FC211D
(1790667208.918502) can0 012#02821F7FF8002F1F
(1790667208.918562) can1 011#01802D7FF80F221C
(1790667208.918616) can0 013#0380137FF7FD221B
(1790667208.918668) can1 012#0280017FF803201B
(1790667208.918746) can0 014#0480057FF7FD2D1F
(1790667208.918795) can1 013#037FF17FF7FC1E1A
(1790667208.918847) can0 015#057FF17FF7FB301E
(1790667208.918895) can1 014#0481877FF7FA2D16
(1790667208.918975) can0 016#0680367FF7FF291B
(1790667208.919034) can1 015#05809E7FF803201C
(1790667208.919138) can1 016#067F117FF7FB221A
(1790667208.925548) can0 004#8000800000000800
(1790667208.925552) can0 005#8000800000000800
(1790667208.925586) can0 006#8000800000000800
(1790667208.925586) can0 001#8000800000000800
(1790667208.925627) can0 002#8000800000000800
(1790667208.925628) can0 003#8000800000000800
(1790667208.925671) can1 004#8000800000000800
(1790667208.925751) can1 005#8000800000000800
(1790667208.925834) can1 006#8000800000000800
(1790667208.925932) can1 001#8000800000000800
(1790667208.926014) can1 002#8000800000000800
(1790667208.926095) can1 003#8000800000000800
(1790667208.926345) can0 011#0180427FF80B211D
(1790667208.926474) can0 012#02821F7FF7FA2F1F
(1790667208.926514) can1 011#01802D7FF80B221C
(1790667208.926588) can0 013#0380137FF7FC221B
(1790667208.926641) can1 012#0280017FF800201B
(1790667208.926718) can0 014#0480057FF7FB2D1F
(1790667208.926762) can1 013#037FF17FF7F01E1A
(1790667208.926822) can0 015#057FF17FF817301E
(1790667208.926887) can1 014#0481877FF7FF2D16
(1790667208.926937) can0 016#0680367FF800291B
(1790667208.926989) can1 015#05809E7FF7F7211C
(1790667208.927109) can1 016#067F117FF7F6221A
(1790667208.933547) can0 004#8000800000000800
(1790667208.933549) can0 005#8000800000000800
(1790667208.933585) can0 006#8000800000000800
(1790667208.933585) can0 001#8000800000000800
(1790667208.933626) can0 002#8000800000000800
(1790667208.933627) can0 003#8000800000000800
(1790667208.933670) can1 004#8000800000000800
(1790667208.933749) can1 005#8000800000000800
(1790667208.933834) can1 006#8000800000000800
(1790667208.933932) can1 001#8000800000000800
(1790667208.934013) can1 002#8000800000000800
(1790667208.934094) can1 003#8000800000000800
(1790667208.934343) can0 011#0180427FF810211D
(1790667208.934473) can0 012#02821F7FF7ED2F1F
(1790667208.934513) can1 011#01802D7FF800221C
(1790667208.934588) can0 013#0380137FF7FE221B
(1790667208.934632) can1 012#0280017FF803201B
(1790667208.934718) can0 014#0480057FF7F92D1F
(1790667208.934762) can1 013#037FF17FF8031F1A
(1790667208.934822) can0 015#057FF17FF7FC301E
(1790667208.934888) can1 014#0481877FF7FF2D16
(1790667208.934963) can0 016#0680367FF7FF291B
(1790667208.935006) can1 015#05809E7FF7F2211C
(1790667208.935109) can1 016#067F117FF800221A
(1790667208.941551) can0 004#8000800000000800
(1790667208.941555) can0 005#8000800000000800
(1790667208.941596) can0 006#8000800000000800
(1790667208.941597) can0 001#8000800000000800
(1790667208.941631) can0 002#8000800000000800
(1790667208.941676) can0 003#8000800000000800
(1790667208.941677) can1 004#8000800000000800
(1790667208.941756) can1 005#8000800000000800
(1790667208.941837) can1 006#8000800000000800
(1790667208.941936) can1 001#8000800000000800
(1790667208.942015) can1 002#8000800000000800
(1790667208.942094) can1 003#8000800000000800
(1790667208.942366) can0 011#0180427FF80F211D
(1790667208.942465) can0 012#02821F7FF7F52F1F
(1790667208.942518) can1 011#01802D7FF7FD221C
(1790667208.942595) can0 013#0380137FF7FC221B
(1790667208.942650) can1 012#0280017FF7FE201B
(1790667208.942725) can0 014#0480057FF7F52D1F
(1790667208.942763) can1 013#037FF17FF7FB1F1A
(1790667208.942839) can0 015#057FF17FF805301E
(1790667208.942893) can1 014#0481877FF7F22D16
(1790667208.942942) can0 016#0680367FF7F5291B
(1790667208.943020) can1 015#05809E7FF7FF201C
(1790667208.943111) can1 016#067F117FF803221A
(1790667208.949552) can0 004#8000800000000800
(1790667208.949555) can0 005#8000800000000800
(1790667208.949591) can0 006#8000800000000800
(1790667208.949591) can0 001#8000800000000800
(1790667208.949628) can0 002#8000800000000800
(1790667208.949675) can0 003#8000800000000800
(1790667208.949676) can1 004#8000800000000800
(1790667208.949715) can1 005#8000800000000800
(1790667208.949795) can1 006#8000800000000800
(1790667208.949873) can1 001#8000800000000800
(1790667208.949959) can1 002#8000800000000800
(1790667208.950054) can1 003#8000800000000800
(1790667208.950369) can0 011#0180427FF800211D
(1790667208.950473) can0 012#02821F7FF8012F1F
(1790667208.950534) can1 011#01802D7FF809221C
(1790667208.950612) can0 013#0380137FF808221B
(1790667208.950656) can1 012#0280017FF7FE201B
(1790667208.950716) can0 014#0480057FF7FD2D1F
(1790667208.950768) can1 013#037FF17FF8051E1A
(1790667208.950846) can0 015#057FF17FF804301E
(1790667208.950909) can1 014#0481877FF7F22D16
(1790667208.950961) can0 016#0680367FF7FB291B
(1790667208.951013) can1 015#05809E7FF803201C
(1790667208.951112) can1 016#067F117FF802221A
(1790667208.957453) can0 004#8000800000000800
(1790667208.957490) can0 005#8000800000000800
(1790667208.957536) can0 006#8000800000000800
(1790667208.957536) can0 001#8000800000000800
(1790667208.957570) can0 002#8000800000000800
(1790667208.957613) can0 003#8000800000000800
(1790667208.957657) can1 004#8000800000000800
(1790667208.957736) can1 005#8000800000000800
(1790667208.957818) can1 006#8000800000000800
(1790667208.957904) can1 001#8000800000000800
(1790667208.957986) can1 002#8000800000000800
(1790667208.958068) can1 003#8000800000000800
(1790667208.958296) can0 011#0180427FF7FE211D
(1790667208.958409) can0 012#02821F7FF8022F1F
(1790667208.958487) can1 011#01802D7FF808221C
(1790667208.958543) can0 013#0380137FF80D221B
(1790667208.958591) can1 012#0280017FF801201B
(1790667208.958669) can0 014#0480057FF7FB2D1F
(1790667208.958721) can1 013#037FF17FF7FE1E1A
(1790667208.958773) can0 015#057FF17FF7FB301E
(1790667208.958851) can1 014#0481877FF7FB2D16
(1790667208.958888) can0 016#0680367FF7FC291B
(1790667208.958963) can1 015#05809E7FF803201C
(1790667208.959067) can1 016#067F117FF7FD221A
(1790667208.965486) can0 004#8000800000000800
(1790667208.965518) can0 005#8000800000000800
(1790667208.965562) can0 006#8000800000000800
(1790667208.965563) can0 001#8000800000000800
(1790667208.965607) can0 002#8000800000000800
(1790667208.965608) can0 003#8000800000000800
(1790667208.965643) can1 004#8000800000000800
(1790667208.965722) can1 005#8000800000000800
(1790667208.965808) can1 006#8000800000000800
(1790667208.965890) can1 001#8000800000000800
(1790667208.965974) can1 002#8000800000000800
(1790667208.966057) can1 003#8000800000000800
(1790667208.966323) can0 011#0180427FF7F7211D
(1790667208.966448) can0 012#02821F7FF8002F1F
(1790667208.966514) can1 011#01802D7FF806221C
(1790667208.966563) can0 013#0380137FF805221B
(1790667208.966615) can1 012#0280017FF801201B
(1790667208.966693) can0 014#0480057FF7FA2D1F
(1790667208.966748) can1 013#037FF17FF8131E1A
(1790667208.966797) can0 015#057FF17FF80D301E
(1790667208.966849) can1 014#0481877FF7FC2D16
(1790667208.966936) can0 016#0680367FF809291B
(1790667208.966980) can1 015#05809E7FF7EF201C
(1790667208.967094) can1 016#067F117FF807221A
(1790667208.973533) can0 004#8000800000000800
(1790667208.973553) can0 005#8000800000000800
(1790667208.973555) can0 006#8000800000000800
(1790667208.973602) can0 001#8000800000000800
(1790667208.973603) can0 002#8000800000000800
(1790667208.973646) can0 003#8000800000000800
(1790667208.973647) can1 004#8000800000000800
(1790667208.973717) can1 005#8000800000000800
(1790667208.973809) can1 006#8000800000000800
(1790667208.973889) can1 001#8000800000000800
(1790667208.973972) can1 002#8000800000000800
(1790667208.974056) can1 003#8000800000000800
(1790667208.974370) can0 011#0180427FF80F211D
(1790667208.974473) can0 012#02821F7FF7FB2F1F
(1790667208.974513) can1 011#01802D7FF7FB221C
(1790667208.974589) can0 013#0380137FF7FF221B
(1790667208.974626) can1 012#0280017FF800201B
(1790667208.974721) can0 014#0480057FF7F52D1F
(1790667208.974756) can1 013#037FF17FF8031E1A
(1790667208.974850) can0 015#057FF17FF812301E
(1790667208.974889) can1 014#0481877FF7FF2D16
(1790667208.974964) can0 016#0680367FF801291B
(1790667208.975008) can1 015#05809E7FF800211C
(1790667208.975090) can1 016#067F117FF7FA221A
(1790667208.981517) can0 004#8000800000000800
(1790667208.981554) can0 005#8000800000000800
(1790667208.981595) can0 006#8000800000000800
(1790667208.981596) can0 001#8000800000000800
(1790667208.981639) can0 002#8000800000000800
(1790667208.981640) can0 003#8000800000000800
(1790667208.981676) can1 004#8000800000000800
(1790667208.981758) can1 005#8000800000000800
(1790667208.981838) can1 006#8000800000000800
(1790667208.981933) can1 001#8000800000000800
(1790667208.982015) can1 002#8000800000000800
(1790667208.982094) can1 003#8000800000000800
(1790667208.982372) can0 011#0180427FF80C211D
(1790667208.982485) can0 012#02821F7FF7FF301F
(1790667208.982539) can1 011#01802D7FF808221C
(1790667208.982590) can0 013#0380137FF804221B
(1790667208.982642) can1 012#0280017FF801201B
(1790667208.982720) can0 014#0480057FF7F92D1F
(1790667208.982770) can1 013#037FF17FF7F91E1A
(1790667208.982846) can0 015#057FF17FF7F4301E
(1790667208.982891) can1 014#0481877FF7F72D16
(1790667208.982960) can0 016#0680367FF800291B
(1790667208.983013) can1 015#05809E7FF803201C
(1790667208.983112) can1 016#067F117FF800221A
(1790667208.989482) can0 004#8000800000000800
(1790667208.989518) can0 005#8000800000000800
(1790667208.989561) can0 006#8000800000000800
(1790667208.989563) can0 001#8000800000000800
(1790667208.989607) can0 002#8000800000000800
(1790667208.989608) can0 003#8000800000000800
(1790667208.989644) can1 004#8000800000000800
(1790667208.989720) can1 005#8000800000000800
(1790667208.989808) can1 006#8000800000000800
(1790667208.989892) can1 001#8000800000000800
(1790667208.989974) can1 002#8000800000000800
(1790667208.990057) can1 003#8000800000000800
(1790667208.990324) can0 011#0180427FF7F5211D
(1790667208.990451) can0 012#02821F7FF8012F1F
(1790667208.990520) can1 011#01802D7FF7FB221C
(1790667208.990564) can0 013#0380137FF7FA221B
(1790667208.990616) can1 012#0280017FF802201B
(1790667208.990693) can0 014#0480057FF7F62D1F
(1790667208.990748) can1 013#037FF17FF7FF1E1A
(1790667208.990797) can0 015#057FF18007FC301E
(1790667208.990849) can1 014#0481877FF7F72E16
(1790667208.990937) can0 016#0680367FF801291B
(1790667208.990981) can1 015#05809E7FF800201C
(1790667208.991092) can1 016#067F117FF804221A
(1790667208.997550) can0 004#8000800000000800
(1790667208.997578) can0 005#8000800000000800
(1790667208.997629) can0 006#8000800000000800
(1790667208.997632) can0 001#8000800000000800
(1790667208.997711) can0 002#8000800000000800
(1790667208.997715) can0 003#8000800000000800
(1790667208.997717) can1 004#8000800000000800
(1790667208.997816) can1 005#8000800000000800
(1790667208.997909) can1 006#8000800000000800
(1790667208.998000) can1 001#8000800000000800
(1790667208.998085) can1 002#8000800000000800
(1790667208.998191) can1 003#8000800000000800
(1790667208.998378) can0 011#0180427FF80A211D
(1790667208.998520) can0 012#02821F7FF7F72F1F
(1790667208.998558) can1 011#01802D7FF7FE221C
(1790667208.998619) can0 013#0380137FF7FF221B
(1790667208.998655) can1 012#0280017FF7FE201B
(1790667208.998748) can0 014#0480057FF7F92D1F
(1790667208.998782) can1 013#037FF17FF80B1E1A
(1790667208.998849) can0 015#057FF17FF7F7301E
(1790667208.998888) can1 014#0481877FF7F92D16
(1790667208.998990) can0 016#0680367FF7FF291B
(1790667208.999033) can1 015#05809E7FF805201C
(1790667208.999112) can1 016#067F117FF7FB221A
(1790667209.005544) can0 004#8000800000000800
(1790667209.005580) can0 005#8000800000000800
(1790667209.005581) can0 006#8000800000000800
(1790667209.005617) can0 001#8000800000000800
(1790667209.005618) can0 002#8000800000000800
(1790667209.005654) can0 003#8000800000000800
(1790667209.005704) can1 004#8000800000000800
(1790667209.005782) can1 005#8000800000000800
(1790667209.005866) can1 006#8000800000000800
(1790667209.005962) can1 001#8000800000000800
(1790667209.006057) can1 002#8000800000000800
(1790667209.006137) can1 003#8000800000000800
(1790667209.006369) can0 011#0180427FE808211D
(1790667209.006513) can0 012#02821F7FF7FD2F1F
(1790667209.006555) can1 011#01802D7FF810221C
(1790667209.006614) can0 013#0380137FF801221B
(1790667209.006664) can1 012#0280017FF7FE201B
(1790667209.006740) can0 014#0480057FF8002D1F
(1790667209.006788) can1 013#037FF17FF7FB1E1A
(1790667209.006864) can0 015#057FF17FF7FE301E
(1790667209.006908) can1 014#0481877FF7F62D16
(1790667209.006989) can0 016#0680367FF807291B
(1790667209.007032) can1 015#05809E7FF7FD201C
(1790667209.007137) can1 016#067F117FF7FF221A
(1790667209.013482) can0 004#8000800000000800
(1790667209.013517) can0 005#8000800000000800
(1790667209.013561) can0 006#8000800000000800
(1790667209.013562) can0 001#8000800000000800
(1790667209.013605) can0 002#8000800000000800
(1790667209.013606) can0 003#8000800000000800
(1790667209.013642) can1 004#8000800000000800
(1790667209.013721) can1 005#8000800000000800
(1790667209.013808) can1 006#8000800000000800
(1790667209.013891) can1 001#8000800000000800
(1790667209.013973) can1 002#8000800000000800
(1790667209.014058) can1 003#8000800000000800
(1790667209.014320) can0 011#0180427FF810211D
(1790667209.014450) can0 012#02821F7FF7FF2F1F
(1790667209.014516) can1 011#01802D7FF80A221C
(1790667209.014564) can0 013#0380137FF804221B
(1790667209.014625) can1 012#0280017FF800201B
(1790667209.014695) can0 014#0480057FF8042D1F
(1790667209.014750) can1 013#037FF17FF7EA1E1A
(1790667209.014799) can0 015#057FF17FF7FF301E
(1790667209.014850) can1 014#0481877FF7F92D16
(1790667209.014938) can0 016#0680367FF7FF291B
(1790667209.014972) can1 015#05809E7FF800211C
(1790667209.015092) can1 016#067F117FF7FE221A
(1790667209.021552) can0 004#8000800000000800
(1790667209.021554) can0 005#8000800000000800
(1790667209.021589) can0 006#8000800000000800
(1790667209.021590) can0 001#8000800000000800
(1790667209.021627) can0 002#8000800000000800
(1790667209.021674) can0 003#8000800000000800
(1790667209.021675) can1 004#8000800000000800
(1790667209.021716) can1 005#8000800000000800
(1790667209.021791) can1 006#8000800000000800
(1790667209.021874) can1 001#8000800000000800
(1790667209.021971) can1 002#8000800000000800
(1790667209.022042) can1 003#8000800000000800
(1790667209.022374) can0 011#0180427FF801211D
(1790667209.022476) can0 012#02821F7FF8052F1F
(1790667209.022531) can1 011#01802D7FF80B221C
(1790667209.022608) can0 013#0380137FF819221B
(1790667209.022648) can1 012#0280017FF7FE201B
(1790667209.022721) can0 014#0480057FF7FB2D1F
(1790667209.022771) can1 013#037FF17FF7FD1E1A
(1790667209.022854) can0 015#057FF17FF7FD301E
(1790667209.022905) can1 014#0481877FF7F42E16
(1790667209.022957) can0 016#0680367FF805291B
(1790667209.023014) can1 015#05809E7FF7F8201C
(1790667209.023143) can1 016#067F117FF7FD221A
(1790667209.029558) can0 004#8000800000000800
(1790667209.029565) can0 005#8000800000000800
(1790667209.029593) can0 006#8000800000000800
(1790667209.029594) can0 001#8000800000000800
(1790667209.029634) can0 002#8000800000000800
(1790667209.029681) can0 003#8000800000000800
(1790667209.029683) can1 004#8000800000000800
(1790667209.029771) can1 005#8000800000000800
(1790667209.029814) can1 006#8000800000000800
(1790667209.029891) can1 001#8000800000000800
(1790667209.029974) can1 002#8000800000000800
(1790667209.030057) can1 003#8000800000000800
(1790667209.030371) can0 011#0180427FF80F211D
(1790667209.030474) can0 012#02821F7FF7FB2F1F
(1790667209.030513) can1 011#01802D7FF80E221C
(1790667209.030589) can0 013#0380137FF809221B
(1790667209.030641) can1 012#0280017FF801201B
(1790667209.030718) can0 014#0480057FF7F92D1F
(1790667209.030771) can1 013#037FF17FF7F61E1A
(1790667209.030849) can0 015#057FF17FF7FC301E
(1790667209.030889) can1 014#0481877FF7F62D16
(1790667209.030964) can0 016#0680367FF7FD291B
(1790667209.031007) can1 015#05809E7FF7FD201C
(1790667209.031112) can1 016#067F117FF800221A
(1790667209.037481) can0 004#8000800000000800
(1790667209.037518) can0 005#8000800000000800
(1790667209.037563) can0 006#8000800000000800
(1790667209.037564) can0 001#8000800000000800
(1790667209.037608) can0 002#8000800000000800
(1790667209.037610) can0 003#8000800000000800
(1790667209.037644) can1 004#8000800000000800
(1790667209.037721) can1 005#8000800000000800
(1790667209.037809) can1 006#8000800000000800
(1790667209.037891) can1 001#8000800000000800
(1790667209.037972) can1 002#8000800000000800
(1790667209.038057) can1 003#8000800000000800
(1790667209.038319) can0 011#0180427FF809211D
(1790667209.038449) can0 012#02821F7FF8032F1F
(1790667209.038515) can1 011#01802D7FF801221C
(1790667209.038564) can0 013#0380137FF80C221B
(1790667209.038616) can1 012#0280017FF800201B
(1790667209.038694) can0 014#0480057FF7F42D1F
(1790667209.038752) can1 013#037FF17FF8091E1A
(1790667209.038800) can0 015#057FF17FF7FD301E
(1790667209.038849) can1 014#0481877FF7FB2D16
(1790667209.038911) can0 016#0680367FF80B291B
(1790667209.038964) can1 015#05809E7FF7FD201C
(1790667209.039096) can1 016#067F117FF7F8221A
(1790667209.045488) can0 004#8000800000000800
(1790667209.045521) can0 005#8000800000000800
(1790667209.045567) can0 006#8000800000000800
(1790667209.045569) can0 001#8000800000000800
(1790667209.045613) can0 002#8000800000000800
(1790667209.045615) can0 003#8000800000000800
(1790667209.045654) can1 004#8000800000000800
(1790667209.045758) can1 005#8000800000000800
(1790667209.045823) can1 006#8000800000000800
(1790667209.045906) can1 001#8000800000000800
(1790667209.045998) can1 002#8000800000000800
(1790667209.046084) can1 003#8000800000000800
(1790667209.046324) can0 011#0180427FF7F7211D
(1790667209.046453) can0 012#02821F7FF7F92F1F
(1790667209.046499) can1 011#01802D7FF7FF221C
(1790667209.046578) can0 013#0380137FF7FD221B
(1790667209.046627) can1 012#0280017FF800201B
