(1790665599.336048) can0 004#FFFFFFFFFFFFFFFD
(1790665599.336088) can0 005#FFFFFFFFFFFFFFFD
(1790665599.336089) can0 006#FFFFFFFFFFFFFFFD
(1790665599.336113) can0 001#FFFFFFFFFFFFFFFD
(1790665599.336155) can0 002#FFFFFFFFFFFFFFFD
(1790665599.336156) can0 003#FFFFFFFFFFFFFFFD
(1790665599.336208) can1 004#FFFFFFFFFFFFFFFD
(1790665599.336209) can1 005#FFFFFFFFFFFFFFFD
(1790665599.336241) can1 006#FFFFFFFFFFFFFFFD
(1790665599.336242) can1 001#FFFFFFFFFFFFFFFD
(1790665599.336277) can1 002#FFFFFFFFFFFFFFFD
(1790665599.336323) can0 004#8000800000000800
(1790665599.336318) can1 003#FFFFFFFFFFFFFFFD
(1790665599.336372) can0 005#8000800000000800
(1790665599.336375) can0 006#8000800000000800
(1790665599.336375) can0 001#8000800000000800
(1790665599.336400) can1 004#8000800000000800
(1790665599.336439) can1 005#8000800000000800
(1790665599.336441) can1 006#8000800000000800
(1790665599.336481) can0 002#8000800000000800
(1790665599.336479) can1 001#8000800000000800
(1790665599.336516) can0 003#8000800000000800
(1790665599.336566) can1 002#8000800000000800
(1790665599.336569) can1 003#8000800000000800
(1790665599.337677) can0 011#01800F7FF80B1D1B
(1790665599.337763) can0 011#01800F7FF80C1D1B
(1790665599.337798) can1 011#0180628008161F1A
(1790665599.337865) can0 012#02809C7FF802281C
(1790665599.337918) can1 011#0180628008161F1A
(1790665599.337999) can0 012#02809C7FF802281C
(1790665599.338035) can1 012#0280117FF8001D1A
(1790665599.338111) can0 013#0380107FF7FF1F1A
(1790665599.338228) can0 004#8000800000000800
(1790665599.338242) can0 005#8000800000000800
(1790665599.338243) can0 006#8000800000000800
(1790665599.338280) can0 001#8000800000000800
(1790665599.338281) can0 002#8000800000000800
(1790665599.338314) can0 003#8000800000000800
(1790665599.338317) can1 004#8000800000000800
(1790665599.338358) can1 005#8000800000000800
(1790665599.338360) can1 006#8000800000000800
(1790665599.338361) can1 001#8000800000000800
(1790665599.338392) can1 002#8000800000000800
(1790665599.338432) can1 013#037FFC7FF80E1B19
(1790665599.338467) can1 003#8000800000000800
(1790665599.339131) can0 011#01800F7FF8071D1B
(1790665599.339241) can0 012#02809C7FF800281C
(1790665599.339285) can1 011#0180627FF80F1F1A
(1790665599.339341) can0 013#0380107FF7FF1F1A
(1790665599.339386) can1 012#0280117FF8021D1A
(1790665599.339467) can0 014#0480127FF7FD261B
(1790665599.339502) can1 013#037FFC7FF8081C19
(1790665599.339594) can0 014#0480127FF7FD261B
(1790665599.339623) can1 014#047FEB7FF8042713
(1790665599.339722) can0 014#0480127FF802261B
(1790665599.339757) can1 014#047FEB7FF8022713
(1790665599.339824) can0 015#057FFD7FF804281B
(1790665599.339875) can1 014#047FEB7FE8012713
(1790665599.339934) can0 015#057FFD7FF804281B
(1790665599.339985) can1 015#0580247FF7FC1D1A
(1790665599.340064) can0 015#057FFD7FF800281B
(1790665599.340114) can1 015#0580247FF7FD1D1A
(1790665599.340194) can0 016#067FEB7FF7FA2319
(1790665599.340228) can1 015#0580247FF7FF1D1A
(1790665599.340293) can0 016#067FEB7FF7FB2319
(1790665599.340354) can0 004#8000800000000800
(1790665599.340357) can0 005#8000800000000800
(1790665599.340379) can1 016#0680117FF8001F1A
(1790665599.340419) can0 006#8000800000000800
(1790665599.340420) can0 001#8000800000000800
(1790665599.340466) can0 002#8000800000000800
(1790665599.340468) can0 003#8000800000000800
(1790665599.340494) can1 004#8000800000000800
(1790665599.340538) can1 005#8000800000000800
(1790665599.340540) can1 006#8000800000000800
(1790665599.340579) can1 001#8000800000000800
(1790665599.340580) can1 002#8000800000000800
(1790665599.340624) can1 003#8000800000000800
(1790665599.341313) can0 011#01800F7FF8071D1B
(1790665599.341413) can0 012#02809C7FF807281C
(1790665599.341449) can1 011#0180627FF8031F1A
(1790665599.341545) can0 013#0380107FF8001F1A
(1790665599.341581) can1 012#0280117FF7FF1D1A
(1790665599.341663) can0 014#0480127FF805261B
(1790665599.341707) can1 013#037FFC7FF8041B19
(1790665599.341765) can0 015#057FFD7FF7FF281B
(1790665599.341817) can1 014#047FEB7FF8012713
(1790665599.341894) can0 016#067FEB7FF7FD2319
(1790665599.341931) can1 015#0580247FF7FD1D1A
(1790665599.342046) can1 016#0680117FF7FF1F1A
(1790665599.342495) can0 004#8000800000000800
(1790665599.342536) can0 005#8000800000000800
(1790665599.342566) can0 006#8000800000000800
(1790665599.342567) can0 001#8000800000000800
(1790665599.342652) can0 002#8000800000000800
(1790665599.342654) can0 003#8000800000000800
(1790665599.342666) can1 004#8000800000000800
(1790665599.342701) can1 005#8000800000000800
(1790665599.342703) can1 006#8000800000000800
(1790665599.342745) can1 001#8000800000000800
(1790665599.342746) can1 002#8000800000000800
(1790665599.342779) can0 004#8000800000000800
(1790665599.342777) can1 003#8000800000000800
(1790665599.342818) can0 005#8000800000000800
(1790665599.342820) can0 006#8000800000000800
(1790665599.342844) can0 001#8000800000000800
(1790665599.342898) can1 004#8000800000000800
(1790665599.342900) can1 005#8000800000000800
(1790665599.342931) can1 006#8000800000000800
(1790665599.342978) can0 002#8000800000000800
(1790665599.342976) can1 001#8000800000000800
(1790665599.343015) can0 003#8000800000000800
(1790665599.343016) can0 004#8000800000000800
(1790665599.343049) can0 005#8000800000000800
(1790665599.343050) can0 006#8000800000000800
(1790665599.343091) can0 001#8000800000000800
(1790665599.343093) can1 002#8000800000000800
(1790665599.343130) can1 003#8000800000000800
(1790665599.343133) can1 004#8000800000000800
(1790665599.343169) can1 005#8000800000000800
(1790665599.343245) can1 006#8000800000000800
(1790665599.343248) can1 001#8000800000000800
(1790665599.343267) can0 002#8000800000000800
(1790665599.343268) can0 003#8000800000000800
(1790665599.343295) can1 002#8000800000000800
(1790665599.343329) can1 003#8000800000000800
(1790665599.344872) can0 011#01800F7FF8061D1B
(1790665599.344948) can0 011#01800F7FF8071D1B
(1790665599.345000) can1 011#0180627FE7FB1F1A
(1790665599.345076) can0 011#01800F7FF8071D1B
(1790665599.345128) can1 011#0180627FE7FC1F1A
(1790665599.345205) can0 012#02809C7FF804281C
(1790665599.345255) can1 011#0180627FF7FE1F1A
(1790665599.345332) can0 012#02809C7FF804281C
(1790665599.345382) can1 012#0280117FF7FF1D1A
(1790665599.345479) can0 012#02809C7FF809281C
(1790665599.345504) can1 012#0280117FF7FD1D1A
(1790665599.345568) can0 013#0380107FF8001F1A
(1790665599.345624) can1 012#0280117FF7FD1D1A
(1790665599.345691) can0 013#0380107FF8011F1A
(1790665599.345737) can1 013#037FFC7FF8001C19
(1790665599.345811) can0 013#0380107FF8011F1A
(1790665599.345853) can1 013#037FFC7FF7FA1C19
(1790665599.345928) can0 014#0480127FF805261B
(1790665599.345968) can1 013#037FFC7FF7FA1B19
(1790665599.346030) can0 014#0480127FF804261B
(1790665599.346084) can1 014#047FEB7FF7F92713
(1790665599.346177) can0 014#0480127FF808261B
(1790665599.346216) can1 014#047FEB7FF7F92713
(1790665599.346287) can0 015#057FFD7FF802281B
(1790665599.346328) can1 014#047FEB7FF7FA2713
(1790665599.346396) can0 015#057FFD7FF803281B
(1790665599.346451) can1 015#0580247FF8021D1A
(1790665599.346542) can0 015#057FFD7FF803281B
(1790665599.346575) can1 015#0580247FF8081D1A
(1790665599.346654) can0 016#067FEB7FF7FD2319
(1790665599.346708) can1 015#0580248008061D1A
(1790665599.346763) can0 016#067FEB7FF7FD2319
(1790665599.346813) can1 016#0680117FF7FB1F1A
(1790665599.346881) can0 016#067FEB7FF80E2319
(1790665599.346921) can1 016#0680117FF8001F1A
(1790665599.347051) can1 016#0680117FF8001F1A
(1790665599.350808) can0 004#8000800000000800
(1790665599.350829) can0 005#8000800000000800
(1790665599.350874) can0 006#8000800000000800
(1790665599.350875) can0 001#8000800000000800
(1790665599.350908) can0 002#8000800000000800
(1790665599.350957) can0 003#8000800000000800
(1790665599.350959) can1 004#8000800000000800
(1790665599.350960) can1 005#8000800000000800
(1790665599.350996) can1 006#8000800000000800
(1790665599.350997) can1 001#8000800000000800
(1790665599.351028) can1 002#8000800000000800
(1790665599.351073) can1 003#8000800000000800
(1790665599.351665) can0 011#01800F7FF80F1D1B
(1790665599.351767) can0 012#02809C7FF7F1281C
(1790665599.351828) can1 011#0180627FF8031F1A
(1790665599.351874) can0 013#0380107FF8031F1A
(1790665599.351924) can1 012#0280117FF7F91D1A
(1790665599.352000) can0 014#0480127FF806261B
(1790665599.352052) can1 013#037FFC7FF7FB1B19
(1790665599.352130) can0 015#057FFD7FF800281B
(1790665599.352176) can1 014#047FEB7FF7FF2713
(1790665599.352250) can0 016#067FEB7FF8032319
(1790665599.352301) can1 015#0580247FF7EB1D1A
(1790665599.352426) can1 016#0680117FF7FD1F1A
(1790665599.358789) can0 004#8000800000000800
(1790665599.358802) can0 005#8000800000000800
(1790665599.358838) can0 006#8000800000000800
(1790665599.358839) can0 001#8000800000000800
(1790665599.358878) can0 002#8000800000000800
(1790665599.358880) can0 003#8000800000000800
(1790665599.358918) can1 004#8000800000000800
(1790665599.358958) can1 005#8000800000000800
(1790665599.358959) can1 006#8000800000000800
(1790665599.358995) can1 001#8000800000000800
(1790665599.359036) can1 002#8000800000000800
(1790665599.359038) can1 003#8000800000000800
(1790665599.359602) can0 011#01800F7FF7F81D1B
(1790665599.359730) can0 012#02809C7FF7FD281C
(1790665599.359804) can1 011#0180627FF8001F1A
(1790665599.359859) can0 013#0380107FF7FF1F1A
(1790665599.359895) can1 012#0280117FF80E1D1A
(1790665599.359963) can0 014#0480127FF80A261B
(1790665599.360015) can1 013#037FFC7FF7FB1B19
(1790665599.360093) can0 015#057FFD7FF803281B
(1790665599.360129) can1 014#047FEB7FF80A2713
(1790665599.360204) can0 016#067FEB7FF8032319
(1790665599.360280) can1 015#0580247FF7F21D1A
(1790665599.360360) can1 016#0680117FF7F51F1A
(1790665599.366779) can0 004#8000800000000800
(1790665599.366801) can0 005#8000800000000800
(1790665599.366844) can0 006#8000800000000800
(1790665599.366845) can0 001#8000800000000800
(1790665599.366887) can0 002#8000800000000800
(1790665599.366888) can0 003#8000800000000800
(1790665599.366924) can1 004#8000800000000800
(1790665599.366964) can1 005#8000800000000800
(1790665599.366965) can1 006#8000800000000800
(1790665599.367002) can1 001#8000800000000800
(1790665599.367043) can1 002#8000800000000800
(1790665599.367044) can1 003#8000800000000800
(1790665599.367625) can0 011#01800F8007F91D1B
(1790665599.367736) can0 012#02809C7FF808281C
(1790665599.367773) can1 011#0180628008051F1A
(1790665599.367863) can0 013#0380107FF8001F1A
(1790665599.367909) can1 012#0280117FF7FF1D1A
(1790665599.367970) can0 014#0480127FF7F4261B
(1790665599.368038) can1 013#037FFC7FF80E1C19
(1790665599.368096) can0 015#057FFD7FF801281B
(1790665599.368141) can1 014#047FEB7FF7FC2713
(1790665599.368209) can0 016#067FEB7FF8032319
(1790665599.368259) can1 015#0580247FF7FC1D1A
(1790665599.368364) can1 016#0680117FF7FA1F1A
(1790665599.374804) can0 004#8000800000000800
(1790665599.374880) can0 005#8000800000000800
(1790665599.374882) can0 006#8000800000000800
(1790665599.374948) can1 004#8000800000000800
(1790665599.374883) can0 001#8000800000000800
(1790665599.374913) can0 002#8000800000000800
(1790665599.374914) can0 003#8000800000000800
(1790665599.374993) can1 005#8000800000000800
(1790665599.374996) can1 006#8000800000000800
(1790665599.375029) can1 001#8000800000000800
(1790665599.375076) can1 002#8000800000000800
(1790665599.375077) can1 003#8000800000000800
(1790665599.375669) can0 011#01800F7FF7FE1D1B
(1790665599.375773) can0 012#02809C7FF801281C
(1790665599.375809) can1 011#0180627FF8041F1A
(1790665599.375875) can0 013#0380107FF8001F1A
(1790665599.375926) can1 012#0280117FF80A1D1A
(1790665599.376004) can0 014#0480127FF7ED261B
(1790665599.376039) can1 013#037FFC7FF8061B19
(1790665599.376112) can0 015#057FFD7FF806281B
(1790665599.376159) can1 014#047FEB7FF7F42713
(1790665599.376245) can0 016#067FEB7FF8012319
(1790665599.376279) can1 015#0580247FF7FE1D1A
(1790665599.376402) can1 016#0680117FF8051F1A
(1790665599.382796) can0 004#8000800000000800
(1790665599.382820) can0 005#8000800000000800
(1790665599.382866) can0 006#8000800000000800
(1790665599.382868) can0 001#8000800000000800
(1790665599.382904) can0 002#8000800000000800
(1790665599.382907) can0 003#8000800000000800
(1790665599.382943) can1 004#8000800000000800
(1790665599.382985) can1 005#8000800000000800
(1790665599.382987) can1 006#8000800000000800
(1790665599.383023) can1 001#8000800000000800
(1790665599.383025) can1 002#8000800000000800
(1790665599.383059) can1 003#8000800000000800
(1790665599.383636) can0 011#01800F7FF8031D1B
(1790665599.383760) can0 012#02809C7FF7FE281C
(1790665599.383797) can1 011#0180627FF8031F1A
(1790665599.383911) can0 013#0380107FF8021F1A
(1790665599.383919) can1 012#0280117FF80B1D1A
(1790665599.383984) can0 014#0480127FF7F4261B
(1790665599.384035) can1 013#037FFC7FF7F81C19
(1790665599.384113) can0 015#057FFD7FF807281B
(1790665599.384151) can1 014#047FEB7FF8102713
(1790665599.384223) can0 016#067FEB7FF8092319
(1790665599.384276) can1 015#0580247FF7FB1D1A
(1790665599.384381) can1 016#0680117FF8051F1A
(1790665599.390942) can0 004#8000800000000800
(1790665599.390966) can0 005#8000800000000800
(1790665599.391012) can0 006#8000800000000800
(1790665599.391013) can0 001#8000800000000800
(1790665599.391049) can0 002#8000800000000800
(1790665599.391051) can0 003#8000800000000800
(1790665599.391092) can1 004#8000800000000800
(1790665599.391093) can1 005#8000800000000800
(1790665599.391132) can1 006#8000800000000800
(1790665599.391133) can1 001#8000800000000800
(1790665599.391165) can1 002#8000800000000800
(1790665599.391210) can1 003#8000800000000800
(1790665599.391781) can0 011#01800F7FF7F71D1B
(1790665599.391885) can0 012#02809C7FF7FE281C
(1790665599.391935) can1 011#0180627FF8011F1A
(1790665599.392010) can0 013#0380107FF7FE1F1A
(1790665599.392060) can1 012#0280117FF7FF1D1A
(1790665599.392138) can0 014#0480127FF7FF261B
(1790665599.392172) can1 013#037FFC7FF8061B19
(1790665599.392261) can0 015#057FFD7FF7FF281B
(1790665599.392298) can1 014#047FEB7FF8002713
(1790665599.392389) can0 016#067FEB7FF80A2319
(1790665599.392424) can1 015#0580247FF7FE1D1A
(1790665599.392541) can1 016#0680117FF7FF1F1A
(1790665599.398785) can0 004#8000800000000800
(1790665599.398792) can0 005#8000800000000800
(1790665599.398823) can0 006#8000800000000800
(1790665599.398824) can0 001#8000800000000800
(1790665599.398864) can0 002#8000800000000800
(1790665599.398865) can0 003#8000800000000800
(1790665599.398906) can1 004#8000800000000800
(1790665599.398910) can1 005#8000800000000800
(1790665599.398949) can1 006#8000800000000800
(1790665599.398951) can1 001#8000800000000800
(1790665599.398978) can1 002#8000800000000800
(1790665599.399021) can1 003#8000800000000800
(1790665599.399609) can0 011#01800F7FF8071D1B
(1790665599.399723) can0 012#02809C7FF7FF281C
(1790665599.399777) can1 011#0180627FF80B1F1A
(1790665599.399823) can0 013#0380107FF7FF1F1A
(1790665599.399873) can1 012#0280117FF7F81D1A
(1790665599.399951) can0 014#0480127FF803261B
(1790665599.399988) can1 013#037FFC7FF7FA1C19
(1790665599.400067) can0 015#057FFD7FF806281B
(1790665599.400120) can1 014#047FEB7FF7FB2713
(1790665599.400213) can0 016#067FEB7FF7FF2319
(1790665599.400240) can1 015#0580247FF8011D1A
(1790665599.400357) can1 016#0680117FF8001F1A
(1790665599.406789) can0 004#8000800000000800
(1790665599.406825) can0 005#8000800000000800
(1790665599.406826) can0 006#8000800000000800
(1790665599.406853) can0 001#8000800000000800
(1790665599.406896) can0 002#8000800000000800
(1790665599.406898) can0 003#8000800000000800
(1790665599.406938) can1 004#8000800000000800
(1790665599.406941) can1 005#8000800000000800
(1790665599.406979) can1 006#8000800000000800
(1790665599.406981) can1 001#8000800000000800
(1790665599.407017) can1 002#8000800000000800
(1790665599.407054) can1 003#8000800000000800
(1790665599.407628) can0 011#01800F7FF8081D1B
(1790665599.407759) can0 012#02809C7FF809281C
(1790665599.407785) can1 011#0180627FF8081F1A
(1790665599.407875) can0 013#0380107FF7FF1F1A
(1790665599.407910) can1 012#0280117FF7F41D1A
(1790665599.407979) can0 014#0480127FF802261B
(1790665599.408014) can1 013#037FFC7FF8071C19
(1790665599.408108) can0 015#057FFD7FF804281B
(1790665599.408143) can1 014#047FEB7FF7FC2713
(1790665599.408226) can0 016#067FEB7FF8022319
(1790665599.408265) can1 015#0580247FF7F71D1A
(1790665599.408374) can1 016#0680117FF8041F1A
(1790665599.414867) can0 004#8000800000000800
(1790665599.414907) can0 005#8000800000000800
(1790665599.414908) can0 006#8000800000000800
(1790665599.414935) can0 001#8000800000000800
(1790665599.414979) can0 002#8000800000000800
(1790665599.414980) can0 003#8000800000000800
(1790665599.415023) can1 004#8000800000000800
(1790665599.415025) can1 005#8000800000000800
(1790665599.415063) can1 006#8000800000000800
(1790665599.415064) can1 001#8000800000000800
(1790665599.415111) can1 002#8000800000000800
(1790665599.415145) can1 003#8000800000000800
(1790665599.415709) can0 011#01800F7FF80A1D1B
(1790665599.415837) can0 012#02809C7FF7FE281C
(1790665599.415872) can1 011#0180627FF7FA1F1A
(1790665599.415941) can0 013#0380107FF8011F1A
(1790665599.415992) can1 012#0280117FF7FE1D1A
(1790665599.416070) can0 014#0480127FF802261B
(1790665599.416107) can1 013#037FFC7FF7FD1C19
(1790665599.416182) can0 015#057FFD7FF7F3281B
(1790665599.416234) can1 014#047FEB7FF7FE2713
(1790665599.416312) can0 016#067FEB7FF8062319
(1790665599.416348) can1 015#0580247FF7FB1D1A
(1790665599.416482) can1 016#0680117FF8021F1A
(1790665599.422748) can0 004#8000800000000800
(1790665599.422791) can0 005#8000800000000800
(1790665599.422793) can0 006#8000800000000800
(1790665599.422831) can0 001#8000800000000800
(1790665599.422833) can0 002#8000800000000800
(1790665599.422866) can0 003#8000800000000800
(1790665599.422911) can1 004#8000800000000800
(1790665599.422913) can1 005#8000800000000800
(1790665599.422951) can1 006#8000800000000800
(1790665599.422952) can1 001#8000800000000800
(1790665599.422988) can1 002#8000800000000800
(1790665599.423029) can1 003#8000800000000800
(1790665599.423642) can0 011#01800F7FF8021D1B
(1790665599.423718) can0 012#02809C7FF802281C
(1790665599.423775) can1 011#0180627FF80B1F1A
(1790665599.423868) can0 013#0380107FF7FD1F1A
(1790665599.423886) can1 012#0280117FF7FE1D1A
(1790665599.423954) can0 014#0480127FF800261B
(1790665599.423994) can1 013#037FFC7FF7F31B19
(1790665599.424068) can0 015#057FFD7FF802281B
(1790665599.424122) can1 014#047FEB7FF8002713
(1790665599.424197) can0 016#067FEB7FF8002319
(1790665599.424233) can1 015#0580247FF7FF1D1A
(1790665599.424367) can1 016#0680117FF8021F1A
(1790665599.430814) can0 004#8000800000000800
(1790665599.430836) can0 005#8000800000000800
(1790665599.430878) can0 006#8000800000000800
(1790665599.430879) can0 001#8000800000000800
(1790665599.430923) can0 002#8000800000000800
(1790665599.430924) can0 003#8000800000000800
(1790665599.430957) can1 004#8000800000000800
(1790665599.431006) can1 005#8000800000000800
(1790665599.431007) can1 006#8000800000000800
(1790665599.431007) can1 001#8000800000000800
(1790665599.431038) can1 002#8000800000000800
(1790665599.431074) can1 003#8000800000000800
(1790665599.431643) can0 011#01800F7FF7F51D1B
(1790665599.431772) can0 012#02809C7FF805281C
(1790665599.431808) can1 011#0180627FF7FF1F1A
(1790665599.431874) can0 013#0380107FF7FF1F1A
(1790665599.431928) can1 012#0280117FF7FE1D1A
(1790665599.432011) can0 014#0480127FF805261B
(1790665599.432054) can1 013#037FFC7FF8031B19
(1790665599.432131) can0 015#057FFD7FF805281B
(1790665599.432180) can1 014#047FEB7FF7FD2713
(1790665599.432248) can0 016#067FEB7FF8002319
(1790665599.432296) can1 015#0580247FF7F41D1A
(1790665599.432399) can1 016#0680117FF7FE1F1A
(1790665599.438847) can0 004#8000800000000800
(1790665599.438881) can0 005#8000800000000800
(1790665599.438926) can0 006#8000800000000800
(1790665599.438928) can0 001#8000800000000800
(1790665599.438964) can0 002#8000800000000800
(1790665599.438966) can0 003#8000800000000800
(1790665599.439008) can1 004#8000800000000800
(1790665599.439010) can1 005#8000800000000800
(1790665599.439049) can1 006#8000800000000800
(1790665599.439050) can1 001#8000800000000800
(1790665599.439080) can1 002#8000800000000800
(1790665599.439128) can1 003#8000800000000800
(1790665599.439697) can0 011#01800F7FF7FA1D1B
(1790665599.439807) can0 012#02809C7FF7FF281C
(1790665599.439859) can1 011#0180627FF8031F1A
(1790665599.439937) can0 013#0380107FF7FE1F1A
(1790665599.439972) can1 012#0280117FF8091D1A
(1790665599.440051) can0 014#0480127FF804261B
(1790665599.440102) can1 013#037FFC7FF7F01C19
(1790665599.440181) can0 015#057FFD7FF7F2281B
(1790665599.440225) can1 014#047FEB7FF7FF2713
(1790665599.440285) can0 016#067FEB7FF7FB2319
(1790665599.440337) can1 015#0580247FF7FC1D1A
(1790665599.440441) can1 016#0680117FF8021F1A
(1790665599.446771) can0 004#8000800000000800
(1790665599.446774) can0 005#8000800000000800
(1790665599.446805) can0 006#8000800000000800
(1790665599.446848) can0 001#8000800000000800
(1790665599.446848) can0 002#8000800000000800
(1790665599.446890) can0 003#8000800000000800
(1790665599.446891) can1 004#8000800000000800
(1790665599.446932) can1 005#8000800000000800
(1790665599.446932) can1 006#8000800000000800
(1790665599.446971) can1 001#8000800000000800
(1790665599.446972) can1 002#8000800000000800
(1790665599.447005) can1 003#8000800000000800
(1790665599.447613) can0 011#01800F7FF8081D1B
(1790665599.447752) can0 012#02809C7FF7FC281C
(1790665599.447784) can1 011#0180627FF7F11F1A
(1790665599.447839) can0 013#0380107FF8001F1A
(1790665599.447872) can1 012#0280117FF7F91D1A
(1790665599.447972) can0 014#0480127FF805261B
(1790665599.448009) can1 013#037FFC7FF7F21C19
(1790665599.448098) can0 015#057FFD7FF7FC281B
(1790665599.448139) can1 014#047FEB7FF7FA2713
(1790665599.448213) can0 016#067FEB7FF8022319
(1790665599.448249) can1 015#0580247FF7FE1D1A
(1790665599.448345) can1 016#0680117FF7FE1F1A
(1790665599.454777) can0 004#8000800000000800
(1790665599.454819) can0 005#8000800000000800
(1790665599.454822) can0 006#8000800000000800
(1790665599.454858) can0 001#8000800000000800
(1790665599.454860) can0 002#8000800000000800
(1790665599.454894) can0 003#8000800000000800
(1790665599.454939) can1 004#8000800000000800
(1790665599.454941) can1 005#8000800000000800
(1790665599.454981) can1 006#8000800000000800
(1790665599.454983) can1 001#8000800000000800
(1790665599.455020) can1 002#8000800000000800
(1790665599.455058) can1 003#8000800000000800
(1790665599.455610) can0 011#01800F7FF7FB1D1B
(1790665599.455761) can0 012#02809C7FF7F5281C
(1790665599.455792) can1 011#0180628008031F1A
(1790665599.455868) can0 013#0380107FF7FE1F1A
(1790665599.455903) can1 012#0280117FF7F11D1A
(1790665599.455971) can0 014#0480127FF7FD261B
(1790665599.456024) can1 013#037FFC7FF7F51C19
(1790665599.456101) can0 015#057FFD7FF7FF281B
(1790665599.456153) can1 014#047FEB7FF7FE2713
(1790665599.456204) can0 016#067FEB7FF8002319
(1790665599.456268) can1 015#0580247FF7FF1D1A
(1790665599.456369) can1 016#0680117FF8021F1A
(1790665599.462786) can0 004#8000800000000800
(1790665599.462791) can0 005#8000800000000800
(1790665599.462822) can0 006#8000800000000800
(1790665599.462824) can0 001#8000800000000800
(1790665599.462861) can0 002#8000800000000800
(1790665599.462862) can0 003#8000800000000800
(1790665599.462904) can1 004#8000800000000800
(1790665599.462905) can1 005#8000800000000800
(1790665599.462945) can1 006#8000800000000800
(1790665599.462946) can1 001#8000800000000800
(1790665599.462976) can1 002#8000800000000800
(1790665599.463020) can1 003#8000800000000800
(1790665599.463606) can0 011#01800F7FF8081D1B
(1790665599.463717) can0 012#02809C7FF7FC281C
(1790665599.463750) can1 011#0180627FF7FE1F1A
(1790665599.463823) can0 013#0380107FF8001F1A
(1790665599.463875) can1 012#0280117FF7F41D1A
(1790665599.463954) can0 014#0480127FF801261B
(1790665599.463997) can1 013#037FFC7FF7FD1C19
(1790665599.464083) can0 015#057FFD7FF803281B
(1790665599.464127) can1 014#047FEB7FF7FF2713
(1790665599.464187) can0 016#067FEB7FF8012319
(1790665599.464238) can1 015#0580247FF8021D1A
(1790665599.464349) can1 016#0680117FF8001F1A
(1790665599.470795) can0 004#8000800000000800
(1790665599.470832) can0 005#8000800000000800
(1790665599.470832) can0 006#8000800000000800
(1790665599.470872) can0 001#8000800000000800
(1790665599.470872) can0 002#8000800000000800
(1790665599.470909) can0 003#8000800000000800
(1790665599.470952) can1 004#8000800000000800
(1790665599.470954) can1 005#8000800000000800
(1790665599.470993) can1 006#8000800000000800
(1790665599.470993) can1 001#8000800000000800
(1790665599.471027) can1 002#8000800000000800
(1790665599.471071) can1 003#8000800000000800
(1790665599.471634) can0 011#01800F7FF8061D1B
(1790665599.471765) can0 012#02809C7FF804281C
(1790665599.471806) can1 011#0180627FF8101F1A
(1790665599.471857) can0 013#0380107FF7FF1F1A
(1790665599.471910) can1 012#0280117FF7F51D1A
(1790665599.471988) can0 014#0480127FF802261B
(1790665599.472036) can1 013#037FFC7FF7FA1C19
(1790665599.472114) can0 015#057FFD7FF802281B
(1790665599.472165) can1 014#047FEB7FF7FF2713
(1790665599.472218) can0 016#067FEB7FF7FA2319
(1790665599.472286) can1 015#0580247FF7F61D1A
(1790665599.472390) can1 016#0680117FF7FC1F1A
(1790665599.478820) can0 004#8000800000000800
(1790665599.478831) can0 005#8000800000000800
(1790665599.478839) can0 006#8000800000000800
(1790665599.478885) can0 001#8000800000000800
(1790665599.478885) can0 002#8000800000000800
(1790665599.478918) can0 003#8000800000000800
(1790665599.478919) can1 004#8000800000000800
(1790665599.478963) can1 005#8000800000000800
(1790665599.478964) can1 006#8000800000000800
(1790665599.479003) can1 001#8000800000000800
(1790665599.479004) can1 002#8000800000000800
(1790665599.479035) can1 003#8000800000000800
(1790665599.479670) can0 011#01800F7FF8051D1B
(1790665599.479771) can0 012#02809C7FF800281C
(1790665599.479812) can1 011#0180627FE80D1F1A
(1790665599.479894) can0 013#0380107FF7FE1F1A
(1790665599.479930) can1 012#0280117FF7FB1D1A
(1790665599.479997) can0 014#0480127FF7F9261B
(1790665599.480033) can1 013#037FFC7FF8031C19
(1790665599.480113) can0 015#057FFD7FF80B281B
(1790665599.480156) can1 014#047FEB7FF7F72713
(1790665599.480244) can0 016#067FEB7FF80C2319
(1790665599.480280) can1 015#0580247FF7E91D1A
(1790665599.480376) can1 016#0680117FF7FB1F1A
(1790665599.486808) can0 004#8000800000000800
(1790665599.486820) can0 005#8000800000000800
(1790665599.486846) can0 006#8000800000000800
(1790665599.486847) can0 001#8000800000000800
(1790665599.486882) can0 002#8000800000000800
(1790665599.486930) can0 003#8000800000000800
(1790665599.486934) can1 004#8000800000000800
(1790665599.486935) can1 005#8000800000000800
(1790665599.486962) can1 006#8000800000000800
(1790665599.487001) can1 001#8000800000000800
(1790665599.487047) can1 002#8000800000000800
(1790665599.487049) can1 003#8000800000000800
(1790665599.487636) can0 011#01800F7FF80C1D1B
(1790665599.487744) can0 012#02809C7FF7F8281C
(1790665599.487773) can1 011#0180627FF81C1F1A
(1790665599.487851) can0 013#0380107FF7FE1F1A
(1790665599.487903) can1 012#0280117FF7FD1D1A
(1790665599.487981) can0 014#0480127FF801261B
(1790665599.488017) can1 013#037FFC7FF80E1C19
(1790665599.488096) can0 015#057FFD7FF806281B
(1790665599.488147) can1 014#047FEB7FF8022713
(1790665599.488225) can0 016#067FEB7FF8092319
(1790665599.488261) can1 015#0580247FF7F11D1A
(1790665599.488380) can1 016#0680117FF7FD1F1A
(1790665599.494748) can0 004#8000800000000800
(1790665599.494773) can0 005#8000800000000800
(1790665599.494848) can0 006#8000800000000800
(1790665599.494850) can0 001#8000800000000800
(1790665599.494858) can0 002#8000800000000800
(1790665599.494859) can0 003#8000800000000800
(1790665599.494899) can1 004#8000800000000800
(1790665599.494901) can1 005#8000800000000800
(1790665599.494933) can1 006#8000800000000800
(1790665599.494974) can1 001#8000800000000800
(1790665599.495015) can1 002#8000800000000800
(1790665599.495016) can1 003#8000800000000800
(1790665599.495591) can0 011#01800F7FF8031D1B
(1790665599.495702) can0 012#02809C7FF802281C
(1790665599.495751) can1 011#0180627FF8011F1A
(1790665599.495833) can0 013#0380107FF8011F1A
(1790665599.495868) can1 012#0280117FF7FC1D1A
(1790665599.495937) can0 014#0480127FF7FD261B
(1790665599.495990) can1 013#037FFC7FF8021B19
(1790665599.496067) can0 015#057FFD7FF802281B
(1790665599.496102) can1 014#047FEB7FF8042713
(1790665599.496185) can0 016#067FEB7FF8002319
(1790665599.496232) can1 015#0580247FF7FC1D1A
(1790665599.496357) can1 016#0680117FF7FD1F1A
(1790665599.502800) can0 004#8000800000000800
(1790665599.502820) can0 005#8000800000000800
(1790665599.502861) can0 006#8000800000000800
(1790665599.502863) can0 001#8000800000000800
(1790665599.502901) can0 002#8000800000000800
(1790665599.502902) can0 003#8000800000000800
(1790665599.502944) can1 004#8000800000000800
(1790665599.502946) can1 005#8000800000000800
(1790665599.502985) can1 006#8000800000000800
(1790665599.502986) can1 001#8000800000000800
(1790665599.503014) can1 002#8000800000000800
(1790665599.503064) can1 003#8000800000000800
(1790665599.503650) can0 011#01800F7FF8051D1B
(1790665599.503760) can0 012#02809C7FF7F7281C
(1790665599.503791) can1 011#0180627FF7FB1F1A
(1790665599.503867) can0 013#0380107FF8001F1A
(1790665599.503919) can1 012#0280117FF7FA1D1A
(1790665599.503997) can0 014#0480127FF805261B
(1790665599.504033) can1 013#037FFC7FF7FC1C19
(1790665599.504110) can0 015#057FFD7FF7FB281B
(1790665599.504157) can1 014#047FEB7FF7FD2713
(1790665599.504240) can0 016#067FEB7FF7F82319
(1790665599.504277) can1 015#0580247FF7F81D1A
(1790665599.504396) can1 016#0680117FF8031F1A
(1790665599.510797) can0 004#8000800000000800
(1790665599.510821) can0 005#8000800000000800
(1790665599.510863) can0 006#8000800000000800
(1790665599.510864) can0 001#8000800000000800
(1790665599.510908) can0 002#8000800000000800
(1790665599.510909) can0 003#8000800000000800
(1790665599.510948) can1 004#8000800000000800
(1790665599.510949) can1 005#8000800000000800
(1790665599.510988) can1 006#8000800000000800
(1790665599.510989) can1 001#8000800000000800
(1790665599.511020) can1 002#8000800000000800
(1790665599.511064) can1 003#8000800000000800
(1790665599.511654) can0 011#01800F7FF8051D1B
(1790665599.511766) can0 012#02809C7FF7FB281C
(1790665599.511797) can1 011#0180627FF7F11F1A
(1790665599.511871) can0 013#0380107FF7FF1F1A
(1790665599.511922) can1 012#0280117FF7FA1D1A
(1790665599.511999) can0 014#0480127FF801261B
(1790665599.512036) can1 013#037FFC7FF7FE1C19
(1790665599.512104) can0 015#057FFD7FF7FC281B
(1790665599.512156) can1 014#047FEB7FF8012713
(1790665599.512242) can0 016#067FEB7FF8012319
(1790665599.512287) can1 015#0580247FF7FE1D1A
(1790665599.512396) can1 016#0680117FF8081F1A
(1790665599.518760) can0 004#8000800000000800
(1790665599.518793) can0 005#8000800000000800
(1790665599.518834) can0 006#8000800000000800
(1790665599.518835) can0 001#8000800000000800
(1790665599.518875) can0 002#8000800000000800
(1790665599.518876) can0 003#8000800000000800
(1790665599.518916) can1 004#8000800000000800
(1790665599.518918) can1 005#8000800000000800
(1790665599.518957) can1 006#8000800000000800
(1790665599.518959) can1 001#8000800000000800
(1790665599.518992) can1 002#8000800000000800
(1790665599.519033) can1 003#8000800000000800
(1790665599.519631) can0 011#01800F7FF8041D1B
(1790665599.519725) can0 012#02809C7FF805281C
(1790665599.519766) can1 011#0180627FF7F01F1A
(1790665599.519855) can0 013#0380107FF7FF1F1A
(1790665599.519891) can1 012#0280117FF7FE1D1A
(1790665599.519962) can0 014#0480127FF7F9261B
(1790665599.520012) can1 013#037FFC7FF7FD1C19
(1790665599.520089) can0 015#057FFD7FF7F0281B
(1790665599.520129) can1 014#047FEB7FF7FA2713
(1790665599.520204) can0 016#067FEB7FF7FC2319
(1790665599.520246) can1 015#0580247FF7FB1D1A
(1790665599.520359) can1 016#0680117FF8011F1A
(1790665599.526786) can0 004#8000800000000800
(1790665599.526808) can0 005#8000800000000800
(1790665599.526848) can0 006#8000800000000800
(1790665599.526850) can0 001#8000800000000800
(1790665599.526885) can0 002#8000800000000800
(1790665599.526887) can0 003#8000800000000800
(1790665599.526922) can1 004#8000800000000800
(1790665599.526969) can1 005#8000800000000800
(1790665599.526970) can1 006#8000800000000800
(1790665599.526970) can1 001#8000800000000800
(1790665599.527000) can1 002#8000800000000800
(1790665599.527041) can1 003#8000800000000800
(1790665599.527638) can0 011#01800F7FF8071D1B
(1790665599.527734) can0 012#02809C7FF800281C
(1790665599.527781) can1 011#0180627FF80B1F1A
(1790665599.527857) can0 013#0380107FF7FE1F1A
(1790665599.527900) can1 012#0280117FF7F81D1A
(1790665599.527961) can0 014#0480127FF800261B
(1790665599.528009) can1 013#037FFC7FF7F81C19
(1790665599.528093) can0 015#057FFD7FF803281B
(1790665599.528142) can1 014#047FEB7FF7FF2713
(1790665599.528220) can0 016#067FEB7FF7FC2319
(1790665599.528262) can1 015#0580247FF7FA1D1A
(1790665599.528383) can1 016#0680117FF7FF1F1A
(1790665599.534763) can0 004#8000800000000800
(1790665599.534832) can0 005#8000800000000800
(1790665599.534834) can0 006#8000800000000800
(1790665599.534834) can0 001#8000800000000800
(1790665599.534862) can0 002#8000800000000800
(1790665599.534907) can0 003#8000800000000800
(1790665599.534910) can1 004#8000800000000800
(1790665599.534946) can1 005#8000800000000800
(1790665599.534948) can1 006#8000800000000800
(1790665599.534986) can1 001#8000800000000800
(1790665599.534988) can1 002#8000800000000800
(1790665599.535022) can1 003#8000800000000800
(1790665599.535613) can0 011#01800F7FF8051D1B
(1790665599.535718) can0 012#02809C7FF80B281C
(1790665599.535762) can1 011#0180627FF8041F1A
(1790665599.535842) can0 013#0380107FF8001F1A
(1790665599.535880) can1 012#0280117FF7FC1D1A
(1790665599.535946) can0 014#0480127FF801261B
(1790665599.535998) can1 013#037FFC7FF8051C19
(1790665599.536076) can0 015#057FFD7FF800281B
(1790665599.536114) can1 014#047FEB7FF7FE2713
(1790665599.536196) can0 016#067FEB7FF7FE2319
(1790665599.536244) can1 015#0580247FF8001D1A
(1790665599.536369) can1 016#0680117FF8021F1A
(1790665599.542793) can0 004#8000800000000800
(1790665599.542814) can0 005#8000800000000800
(1790665599.542854) can0 006#8000800000000800
(1790665599.542897) can0 001#8000800000000800
(1790665599.542900) can0 002#8000800000000800
(1790665599.542943) can0 003#8000800000000800
(1790665599.542945) can1 004#8000800000000800
(1790665599.542946) can1 005#8000800000000800
(1790665599.542978) can1 006#8000800000000800
(1790665599.543020) can1 001#8000800000000800
(1790665599.543023) can1 002#8000800000000800
(1790665599.543060) can1 003#8000800000000800
(1790665599.543688) can0 011#01800F7FF8091D1B
(1790665599.543762) can0 012#02809C7FF7F7281C
(1790665599.543827) can1 011#0180627FF8001F1A
(1790665599.543873) can0 013#0380107FF8021F1A
(1790665599.543924) can1 012#0280117FF7F91D1A
(1790665599.543976) can0 014#0480127FF7F9261B
(1790665599.544055) can1 013#037FFC7FF8091C19
(1790665599.544107) can0 015#057FFD7FF803281B
(1790665599.544158) can1 014#047FEB7FF7FC2713
(1790665599.544210) can0 016#067FEB7FF7F32319
(1790665599.544274) can1 015#0580247FF7F41D1A
(1790665599.544408) can1 016#0680117FF8061F1A
(1790665599.550805) can0 004#8000800000000800
(1790665599.550828) can0 005#8000800000000800
(1790665599.550864) can0 006#8000800000000800
(1790665599.550865) can0 001#8000800000000800
(1790665599.550911) can0 002#8000800000000800
(1790665599.550912) can0 003#8000800000000800
(1790665599.550950) can1 004#8000800000000800
(1790665599.550952) can1 005#8000800000000800
(1790665599.550988) can1 006#8000800000000800
(1790665599.550991) can1 001#8000800000000800
(1790665599.551023) can1 002#8000800000000800
(1790665599.551063) can1 003#8000800000000800
(1790665599.551661) can0 011#01800F7FF7F51D1B
(1790665599.551776) can0 012#02809C7FF7FC281C
(1790665599.551806) can1 011#0180627FF80E1F1A
(1790665599.551882) can0 013#0380107FF8001F1A
(1790665599.551918) can1 012#0280117FF8021D1A
(1790665599.551984) can0 014#0480127FF805261B
(1790665599.552035) can1 013#037FFC8007F31C19
(1790665599.552112) can0 015#057FFD7FF801281B
(1790665599.552165) can1 014#047FEB7FF80D2713
(1790665599.552240) can0 016#067FEB7FF8002319
(1790665599.552277) can1 015#0580247FF8001D1A
(1790665599.552379) can1 016#0680117FF7FC1F1A
(1790665599.558786) can0 004#8000800000000800
(1790665599.558805) can0 005#8000800000000800
(1790665599.558846) can0 006#8000800000000800
(1790665599.558847) can0 001#8000800000000800
(1790665599.558884) can0 002#8000800000000800
(1790665599.558929) can0 003#8000800000000800
(1790665599.558930) can1 004#8000800000000800
(1790665599.558969) can1 005#8000800000000800
(1790665599.558970) can1 006#8000800000000800
(1790665599.559007) can1 001#8000800000000800
(1790665599.559008) can1 002#8000800000000800
(1790665599.559043) can1 003#8000800000000800
(1790665599.559639) can0 011#01800F7FF8031D1B
(1790665599.559743) can0 012#02809C7FF7E5281C
(1790665599.559784) can1 011#0180627FF7FB1F1A
(1790665599.559864) can0 013#0380107FF7FF1F1A
(1790665599.559900) can1 012#0280117FF7F91D1A
(1790665599.559971) can0 014#0480127FF804261B
(1790665599.560023) can1 013#037FFC7FF8021C19
(1790665599.560114) can0 015#057FFD7FF801281B
(1790665599.560151) can1 014#047FEB7FF7FE2713
(1790665599.560216) can0 016#067FEB7FF7FD2319
(1790665599.560266) can1 015#0580247FF8001D1A
(1790665599.560372) can1 016#0680117FF8001F1A
(1790665599.566777) can0 004#8000800000000800
(1790665599.566828) can0 005#8000800000000800
(1790665599.566830) can0 006#8000800000000800
(1790665599.566850) can0 001#8000800000000800
(1790665599.566897) can0 002#8000800000000800
(1790665599.566899) can0 003#8000800000000800
(1790665599.566934) can1 004#8000800000000800
(1790665599.566985) can1 005#8000800000000800
(1790665599.566986) can1 006#8000800000000800
(1790665599.566987) can1 001#8000800000000800
(1790665599.567012) can1 002#8000800000000800
(1790665599.567052) can1 003#8000800000000800
(1790665599.567646) can0 011#01800F7FF8031D1B
(1790665599.567763) can0 012#02809C7FF7F9281C
(1790665599.567795) can1 011#0180627FF7FF1F1A
(1790665599.567874) can0 013#0380107FF8001F1A
(1790665599.567911) can1 012#0280117FF8071D1A
(1790665599.567975) can0 014#0480127FF7F7261B
(1790665599.568031) can1 013#037FFC7FF80A1C19
(1790665599.568123) can0 015#057FFD7FF800281B
(1790665599.568159) can1 014#047FEB7FF8032713
(1790665599.568224) can0 016#067FEB7FF7FE2319
(1790665599.568277) can1 015#0580247FF8011D1A
(1790665599.568381) can1 016#0680117FF8051F1A
(1790665599.574773) can0 004#8000800000000800
(1790665599.574795) can0 005#8000800000000800
(1790665599.574843) can0 006#8000800000000800
(1790665599.574845) can0 001#8000800000000800
(1790665599.574871) can0 002#8000800000000800
(1790665599.574918) can0 003#8000800000000800
(1790665599.574919) can1 004#8000800000000800
(1790665599.574965) can1 005#8000800000000800
(1790665599.574966) can1 006#8000800000000800
(1790665599.574967) can1 001#8000800000000800
(1790665599.574991) can1 002#8000800000000800
(1790665599.575034) can1 003#8000800000000800
(1790665599.575623) can0 011#01800F7FF8041D1B
(1790665599.575733) can0 012#02809C7FF7FE281C
(1790665599.575779) can1 011#0180627FF7FF1F1A
(1790665599.575857) can0 013#0380107FF8001F1A
(1790665599.575902) can1 012#0280117FF8031D1A
(1790665599.575960) can0 014#0480127FF7FD261B
(1790665599.576008) can1 013#037FFC7FF8011C19
(1790665599.576083) can0 015#057FFD7FF7FD281B
(1790665599.576136) can1 014#047FEB7FF8042713
(1790665599.576208) can0 016#067FEB7FF7FC2319
(1790665599.576257) can1 015#0580247FF8001D1A
(1790665599.576358) can1 016#0680117FF7FE1F1A
(1790665599.582906) can0 004#8000800000000800
(1790665599.582946) can0 005#8000800000000800
(1790665599.582947) can0 006#8000800000000800
(1790665599.582970) can0 001#8000800000000800
(1790665599.583015) can0 002#8000800000000800
(1790665599.583016) can0 003#8000800000000800
(1790665599.583058) can1 004#8000800000000800
(1790665599.583060) can1 005#8000800000000800
(1790665599.583098) can1 006#8000800000000800
(1790665599.583100) can1 001#8000800000000800
(1790665599.583138) can1 002#8000800000000800
(1790665599.583177) can1 003#8000800000000800
(1790665599.583764) can0 011#01800F7FF7F91D1B
(1790665599.583864) can0 012#02809C7FF7F7281C
(1790665599.583914) can1 011#0180627FF8031F1A
(1790665599.583969) can0 013#0380107FF8001F1A
(1790665599.584019) can1 012#0280117FF7FF1D1A
(1790665599.584097) can0 014#0480127FF7FA261B
(1790665599.584148) can1 013#037FFC7FF7FA1B19
(1790665599.584200) can0 015#057FFD7FF802281B
(1790665599.584263) can1 014#047FEB7FF7FF2713
(1790665599.584339) can0 016#067FEB7FF8062319
(1790665599.584391) can1 015#0580247FF7FF1D1A
(1790665599.584494) can1 016#0680117FF8031F1A
(1790665599.590873) can0 004#8000800000000800
(1790665599.590897) can0 005#8000800000000800
(1790665599.590942) can0 006#8000800000000800
(1790665599.590943) can0 001#8000800000000800
(1790665599.590981) can0 002#8000800000000800
(1790665599.590982) can0 003#8000800000000800
(1790665599.591025) can1 004#8000800000000800
(1790665599.591027) can1 005#8000800000000800
(1790665599.591065) can1 006#8000800000000800
(1790665599.591066) can1 001#8000800000000800
(1790665599.591095) can1 002#8000800000000800
(1790665599.591142) can1 003#8000800000000800
(1790665599.591723) can0 011#01800F7FF8051D1B
(1790665599.591840) can0 012#02809C7FF803281C
(1790665599.591872) can1 011#0180627FF8011F1A
(1790665599.591954) can0 013#0380107FF8011F1A
(1790665599.591990) can1 012#0280117FF8021D1A
(1790665599.592077) can0 014#0480127FF800261B
(1790665599.592116) can1 013#037FFC7FF7FC1C19
(1790665599.592208) can0 015#057FFD7FF7FF281B
(1790665599.592243) can1 014#047FEB7FF8022713
(1790665599.592319) can0 016#067FEB7FF7F82319
(1790665599.592354) can1 015#0580247FF7FE1D1A
(1790665599.592477) can1 016#0680117FF7FE1F1A
(1790665599.598767) can0 004#8000800000000800
(1790665599.598798) can0 005#8000800000000800
(1790665599.598799) can0 006#8000800000000800
(1790665599.598835) can0 001#8000800000000800
(1790665599.598873) can0 002#8000800000000800
(1790665599.598875) can0 003#8000800000000800
(1790665599.598914) can1 004#8000800000000800
(1790665599.598917) can1 005#8000800000000800
(1790665599.598949) can1 006#8000800000000800
(1790665599.598991) can1 001#8000800000000800
(1790665599.599032) can1 002#8000800000000800
(1790665599.599035) can1 003#8000800000000800
(1790665599.599623) can0 011#01800F7FF8001D1B
(1790665599.599716) can0 012#02809C7FF803281C
(1790665599.599788) can1 011#0180627FF7F71F1A
(1790665599.599889) can0 013#0380107FF7FF1F1A
(1790665599.599903) can1 012#0280117FF7F91D1A
(1790665599.599957) can0 014#0480127FF803261B
(1790665599.599997) can1 013#037FFC7FF8041C19
(1790665599.600087) can0 015#057FFD7FF800281B
(1790665599.600127) can1 014#047FEB7FF7FE2713
(1790665599.600236) can0 016#067FEB7FF80A2319
(1790665599.600255) can1 015#0580247FF7F91D1A
(1790665599.600355) can1 016#0680117FF8021F1A
(1790665599.606768) can0 004#8000800000000800
(1790665599.606808) can0 005#8000800000000800
(1790665599.606809) can0 006#8000800000000800
(1790665599.606842) can0 001#8000800000000800
(1790665599.606882) can0 002#8000800000000800
(1790665599.606884) can0 003#8000800000000800
(1790665599.606921) can1 004#8000800000000800
(1790665599.606923) can1 005#8000800000000800
(1790665599.606955) can1 006#8000800000000800
(1790665599.606998) can1 001#8000800000000800
(1790665599.607038) can1 002#8000800000000800
(1790665599.607040) can1 003#8000800000000800
(1790665599.607635) can0 011#01800F7FF7FC1D1B
(1790665599.607722) can0 012#02809C7FF809281C
(1790665599.607786) can1 011#0180627FF7FF1F1A
(1790665599.607858) can0 013#0380107FF7FF1F1A
(1790665599.607887) can1 012#0280117FF80F1D1A
(1790665599.607961) can0 014#0480127FF7F7261B
(1790665599.607997) can1 013#037FFC7FF8241C19
(1790665599.608091) can0 015#057FFD7FF809281B
(1790665599.608127) can1 014#047FEB7FF7FB2713
(1790665599.608201) can0 016#067FEB7FF8132319
(1790665599.608249) can1 015#0580247FF8071D1A
(1790665599.608360) can1 016#0680117FF8021F1A
(1790665599.614896) can0 004#8000800000000800
(1790665599.614924) can0 005#8000800000000800
(1790665599.614979) can0 006#8000800000000800
(1790665599.614992) can0 001#8000800000000800
(1790665599.614993) can0 002#8000800000000800
(1790665599.615038) can0 003#8000800000000800
(1790665599.615044) can1 004#8000800000000800
(1790665599.615046) can1 005#8000800000000800
(1790665599.615075) can1 006#8000800000000800
(1790665599.615077) can1 001#8000800000000800
(1790665599.615090) can1 002#8000800000000800
(1790665599.615123) can1 003#8000800000000800
(1790665599.615738) can0 011#01800F7FF8021D1B
(1790665599.615834) can0 012#02809C7FF801281C
(1790665599.615862) can1 011#0180627FF8071F1A
(1790665599.615958) can0 013#0380107FF8011F1A
(1790665599.615997) can1 012#0280117FF7FC1D1A
(1790665599.616061) can0 014#0480127FF7FE261B
(1790665599.616104) can1 013#037FFC7FF7F71C19
(1790665599.616188) can0 015#057FFD7FF809281B
(1790665599.616226) can1 014#047FEB7FF7FE2713
(1790665599.616314) can0 016#067FEB7FF80A2319
(1790665599.616347) can1 015#0580247FF7FE1D1A
(1790665599.616427) can1 016#0680117FF7F61F1A
(1790665599.622762) can0 004#8000800000000800
(1790665599.622795) can0 005#8000800000000800
(1790665599.622829) can0 006#8000800000000800
(1790665599.622831) can0 001#8000800000000800
(1790665599.622890) can0 002#8000800000000800
(1790665599.622892) can0 003#8000800000000800
(1790665599.622912) can1 004#8000800000000800
(1790665599.622951) can1 005#8000800000000800
(1790665599.622952) can1 006#8000800000000800
(1790665599.622988) can1 001#8000800000000800
(1790665599.623029) can1 002#8000800000000800
(1790665599.623030) can1 003#8000800000000800
(1790665599.623606) can0 011#01800F7FF7F21D1B
(1790665599.623715) can0 012#02809C7FF7FF281C
(1790665599.623761) can1 011#0180627FF7FE1F1A
(1790665599.623846) can0 013#0380107FF8001F1A
(1790665599.623924) can1 012#0280117FF8021D1A
(1790665599.623963) can0 014#0480127FF7FF261B
(1790665599.623998) can1 013#037FFC7FF8011B19
(1790665599.624076) can0 015#057FFD7FF806281B
(1790665599.624129) can1 014#047FEB7FF7FC2713
(1790665599.624212) can0 016#067FEB7FF7FA2319
(1790665599.624248) can1 015#0580247FF7FB1D1A
(1790665599.624372) can1 016#0680117FF7FC1F1A
(1790665599.630770) can0 004#8000800000000800
(1790665599.630789) can0 005#8000800000000800
(1790665599.630835) can0 006#8000800000000800
(1790665599.630837) can0 001#8000800000000800
(1790665599.630882) can0 002#8000800000000800
(1790665599.630883) can0 003#8000800000000800
(1790665599.630913) can1 004#8000800000000800
(1790665599.630954) can1 005#8000800000000800
(1790665599.630955) can1 006#8000800000000800
(1790665599.630992) can1 001#8000800000000800
(1790665599.631032) can1 002#8000800000000800
(1790665599.631033) can1 003#8000800000000800
(1790665599.631615) can0 011#01800F7FF7FF1D1B
(1790665599.631715) can0 012#02809C8007FE281C
(1790665599.631766) can1 011#0180627FF7F31F1A
(1790665599.631849) can0 013#0380107FF7FF1F1A
(1790665599.631927) can1 012#0280117FF8021D1A
(1790665599.631964) can0 014#0480127FF801261B
(1790665599.632007) can1 013#037FFC7FF8011C19
(1790665599.632085) can0 015#057FFD7FF7FA281B
(1790665599.632136) can1 014#047FEB7FF7FD2713
(1790665599.632216) can0 016#067FEB7FF7F72319
(1790665599.632252) can1 015#0580247FF7FD1D1A
(1790665599.632352) can1 016#0680117FF7FA1F1A
(1790665599.638775) can0 004#8000800000000800
(1790665599.638799) can0 005#8000800000000800
(1790665599.638841) can0 006#8000800000000800
(1790665599.638842) can0 001#8000800000000800
(1790665599.638890) can0 002#8000800000000800
(1790665599.638891) can0 003#8000800000000800
(1790665599.638920) can1 004#8000800000000800
(1790665599.638960) can1 005#8000800000000800
(1790665599.638961) can1 006#8000800000000800
(1790665599.638999) can1 001#8000800000000800
(1790665599.639043) can1 002#8000800000000800
(1790665599.639044) can1 003#8000800000000800
(1790665599.639635) can0 011#01800F7FF8081D1B
(1790665599.639725) can0 012#02809C7FF7FE281C
(1790665599.639776) can1 011#0180627FE8001F1A
(1790665599.639856) can0 013#0380107FF8011F1A
(1790665599.639896) can1 012#0280117FF8051D1A
(1790665599.639960) can0 014#0480127FF80B261B
(1790665599.640015) can1 013#037FFC7FF7F31C19
(1790665599.640089) can0 015#057FFD7FF806281B
(1790665599.640141) can1 014#047FEB7FF8002713
(1790665599.640219) can0 016#067FEB7FF8022319
(1790665599.640262) can1 015#0580247FF7FB1D1A
(1790665599.640375) can1 016#0680117FF8051F1A
(1790665599.646797) can0 004#8000800000000800
(1790665599.646831) can0 005#8000800000000800
(1790665599.646877) can0 006#8000800000000800
(1790665599.646879) can0 001#8000800000000800
(1790665599.646914) can0 002#8000800000000800
(1790665599.646915) can0 003#8000800000000800
(1790665599.646950) can1 004#8000800000000800
(1790665599.646994) can1 005#8000800000000800
(1790665599.646995) can1 006#8000800000000800
(1790665599.647033) can1 001#8000800000000800
(1790665599.647073) can1 002#8000800000000800
(1790665599.647074) can1 003#8000800000000800
(1790665599.647675) can0 011#01800F7FF8081D1B
(1790665599.647757) can0 012#02809C7FF805281C
(1790665599.647824) can1 011#0180627FF7FE1F1A
(1790665599.647896) can0 013#0380107FF8011F1A
(1790665599.647925) can1 012#0280117FF8011D1A
(1790665599.648002) can0 014#0480127FF80A261B
(1790665599.648053) can1 013#037FFC7FF8011C19
(1790665599.648131) can0 015#057FFD7FF806281B
(1790665599.648167) can1 014#047FEB7FF7FA2713
(1790665599.648242) can0 016#067FEB7FF8082319
(1790665599.648287) can1 015#0580247FF8071D1A
(1790665599.648401) can1 016#0680117FF8031F1A
(1790665599.654788) can0 004#8000800000000800
(1790665599.654821) can0 005#8000800000000800
(1790665599.654856) can0 006#8000800000000800
(1790665599.654857) can0 001#8000800000000800
(1790665599.654905) can0 002#8000800000000800
(1790665599.654906) can0 003#8000800000000800
(1790665599.654937) can1 004#8000800000000800
(1790665599.654977) can1 005#8000800000000800
(1790665599.654978) can1 006#8000800000000800
(1790665599.655015) can1 001#8000800000000800
(1790665599.655055) can1 002#8000800000000800
(1790665599.655057) can1 003#8000800000000800
(1790665599.655635) can0 011#01800F7FF80B1D1B
(1790665599.655739) can0 012#02809C7FF7FB281C
(1790665599.655789) can1 011#0180627FF7F71F1A
(1790665599.655873) can0 013#0380107FF7FE1F1A
(1790665599.655914) can1 012#0280117FF7F81D1A
(1790665599.655976) can0 014#0480127FF804261B
(1790665599.656025) can1 013#037FFC7FF8071C19
(1790665599.656104) can0 015#057FFD7FF802281B
(1790665599.656154) can1 014#047FEB7FF7FE2713
(1790665599.656233) can0 016#067FEB7FF8032319
(1790665599.656274) can1 015#0580247FE7F31D1A
(1790665599.656380) can1 016#0680117FF7FC1F1A
(1790665599.662822) can0 004#8000800000000800
(1790665599.662862) can0 005#8000800000000800
(1790665599.662863) can0 006#8000800000000800
(1790665599.662907) can0 001#8000800000000800
(1790665599.662908) can0 002#8000800000000800
(1790665599.662932) can0 003#8000800000000800
(1790665599.662980) can1 004#8000800000000800
(1790665599.662981) can1 005#8000800000000800
(1790665599.663019) can1 006#8000800000000800
(1790665599.663020) can1 001#8000800000000800
(1790665599.663054) can1 002#8000800000000800
(1790665599.663055) can1 003#8000800000000800
(1790665599.663666) can0 011#01800F7FF8061D1B
(1790665599.663799) can0 012#02809C7FF7F4281C
(1790665599.663835) can1 011#0180627FF7FC1F1A
(1790665599.663910) can0 013#0380107FF8001F1A
(1790665599.663938) can1 012#0280117FF7F51D1A
(1790665599.664013) can0 014#0480127FF804261B
(1790665599.664063) can1 013#037FFC7FF7F91C19
(1790665599.664142) can0 015#057FFD7FF80B281B
(1790665599.664178) can1 014#047FEB7FF7F92713
(1790665599.664272) can0 016#067FEB7FF8032319
(1790665599.664308) can1 015#0580247FF7EF1D1A
(1790665599.664410) can1 016#0680117FF8061F1A
(1790665599.670805) can0 004#8000800000000800
(1790665599.670835) can0 005#8000800000000800
(1790665599.670877) can0 006#8000800000000800
(1790665599.670879) can0 001#8000800000000800
(1790665599.670922) can0 002#8000800000000800
(1790665599.670923) can0 003#8000800000000800
(1790665599.670954) can1 004#8000800000000800
(1790665599.670998) can1 005#8000800000000800
(1790665599.670999) can1 006#8000800000000800
(1790665599.671036) can1 001#8000800000000800
(1790665599.671038) can1 002#8000800000000800
(1790665599.671081) can1 003#8000800000000800
(1790665599.671667) can0 011#01800F7FF80E1D1B
(1790665599.671751) can0 012#02809C7FF7FA281C
(1790665599.671804) can1 011#0180627FF8051F1A
(1790665599.671889) can0 013#0380107FF8011F1A
(1790665599.671931) can1 012#0280117FF7FA1D1A
(1790665599.671996) can0 014#0480127FF806261B
(1790665599.672048) can1 013#037FFC7FF7FA1C19
(1790665599.672127) can0 015#057FFD7FF800281B
(1790665599.672162) can1 014#047FEB7FF8042713
(1790665599.672276) can0 016#067FEB7FF7FB2319
(1790665599.672290) can1 015#0580247FF7FB1D1A
(1790665599.672399) can1 016#0680117FF7FC1F1A
(1790665599.678777) can0 004#8000800000000800
(1790665599.678818) can0 005#8000800000000800
(1790665599.678819) can0 006#8000800000000800
(1790665599.678858) can0 001#8000800000000800
(1790665599.678860) can0 002#8000800000000800
(1790665599.678903) can0 003#8000800000000800
(1790665599.678906) can1 004#8000800000000800
(1790665599.678944) can1 005#8000800000000800
(1790665599.678977) can1 006#8000800000000800
(1790665599.678979) can1 001#8000800000000800
(1790665599.679010) can1 002#8000800000000800
(1790665599.679088) can1 003#8000800000000800
(1790665599.679626) can0 011#01800F7FF80E1D1B
(1790665599.679726) can0 012#02809C7FF7F7281C
(1790665599.679764) can1 011#0180627FF7FB1F1A
(1790665599.679852) can0 013#0380107FF7FF1F1A
(1790665599.679895) can1 012#0280117FF7F71D1A
(1790665599.679976) can0 014#0480127FF80B261B
(1790665599.680013) can1 013#037FFC7FF7F71C19
(1790665599.680106) can0 015#057FFD7FF7FB281B
(1790665599.680142) can1 014#047FEB7FF8052713
(1790665599.680210) can0 016#067FEB7FF8002319
(1790665599.680247) can1 015#0580247FF8061D1A
(1790665599.680379) can1 016#0680117FF7FA1F1A
(1790665599.686828) can0 004#8000800000000800
(1790665599.686836) can0 005#8000800000000800
(1790665599.686848) can0 006#8000800000000800
(1790665599.686891) can0 001#8000800000000800
(1790665599.686892) can0 002#8000800000000800
(1790665599.686937) can0 003#8000800000000800
(1790665599.686938) can1 004#8000800000000800
(1790665599.686973) can1 005#8000800000000800
(1790665599.687013) can1 006#8000800000000800
(1790665599.687014) can1 001#8000800000000800
(1790665599.687048) can1 002#8000800000000800
(1790665599.687091) can1 003#8000800000000800
(1790665599.687685) can0 011#01800F7FF80E1D1B
(1790665599.687766) can0 012#02809C7FF7F6281C
(1790665599.687802) can1 011#0180627FF7F61F1A
(1790665599.687901) can0 013#0380107FF7FF1F1A
(1790665599.687944) can1 012#0280117FF7F01D1A
(1790665599.688010) can0 014#0480127FF800261B
(1790665599.688045) can1 013#037FFC7FF8071C19
(1790665599.688140) can0 015#057FFD7FF803281B
(1790665599.688177) can1 014#047FEB7FF8002713
(1790665599.688245) can0 016#067FEB7FF8002319
(1790665599.688281) can1 015#0580247FF7FE1D1A
(1790665599.688412) can1 016#0680117FF8041F1A
(1790665599.694826) can0 004#8000800000000800
(1790665599.694858) can0 005#8000800000000800
(1790665599.694893) can0 006#8000800000000800
(1790665599.694894) can0 001#8000800000000800
(1790665599.694939) can0 002#8000800000000800
(1790665599.694941) can0 003#8000800000000800
(1790665599.694973) can1 004#8000800000000800
(1790665599.695014) can1 005#8000800000000800
(1790665599.695015) can1 006#8000800000000800
(1790665599.695052) can1 001#8000800000000800
(1790665599.695095) can1 002#8000800000000800
(1790665599.695096) can1 003#8000800000000800
(1790665599.695668) can0 011#01800F7FF8081D1B
(1790665599.695780) can0 012#02809C7FF7FD281C
(1790665599.695829) can1 011#0180627FF8041F1A
(1790665599.695910) can0 013#0380107FF7FF1F1A
(1790665599.695955) can1 012#0280117FF8001D1A
(1790665599.696013) can0 014#0480127FF800261B
(1790665599.696062) can1 013#037FFC7FF7F71C19
(1790665599.696141) can0 015#057FFD7FF7F3281B
(1790665599.696192) can1 014#047FEB7FF8002713
(1790665599.696266) can0 016#067FEB7FF7FF2319
(1790665599.696311) can1 015#0580247FF8021D1A
(1790665599.696428) can1 016#0680117FF7FA1F1A
(1790665599.702776) can0 004#8000800000000800
(1790665599.702800) can0 005#8000800000000800
(1790665599.702847) can0 006#8000800000000800
(1790665599.702848) can0 001#8000800000000800
(1790665599.702885) can0 002#8000800000000800
(1790665599.702887) can0 003#8000800000000800
(1790665599.702962) can1 004#8000800000000800
(1790665599.702968) can1 005#8000800000000800
(1790665599.702985) can1 006#8000800000000800
(1790665599.702988) can1 001#8000800000000800
(1790665599.702999) can1 002#8000800000000800
(1790665599.703048) can1 003#8000800000000800
(1790665599.703606) can0 011#01800F7FF80A1D1B
(1790665599.703724) can0 012#02809C7FF7F6281C
(1790665599.703783) can1 011#0180627FF7FB1F1A
(1790665599.703874) can0 013#0380107FF8001F1A
(1790665599.703910) can1 012#0280117FF8011D1A
(1790665599.704000) can0 014#0480127FF806261B
(1790665599.704003) can1 013#037FFC7FF8031C19
(1790665599.704103) can0 015#057FFD7FF7FD281B
(1790665599.704138) can1 014#047FEB7FF7FF2713
(1790665599.704207) can0 016#067FEB7FF8182319
(1790665599.704243) can1 015#0580247FF7F51D1A
(1790665599.704375) can1 016#0680117FF7FC1F1A
(1790665599.710782) can0 004#8000800000000800
(1790665599.710808) can0 005#8000800000000800
(1790665599.710850) can0 006#8000800000000800
(1790665599.710852) can0 001#8000800000000800
(1790665599.710894) can0 002#8000800000000800
(1790665599.710896) can0 003#8000800000000800
(1790665599.710963) can1 004#8000800000000800
(1790665599.710967) can1 005#8000800000000800
(1790665599.710986) can1 006#8000800000000800
(1790665599.710988) can1 001#8000800000000800
(1790665599.711006) can1 002#8000800000000800
(1790665599.711050) can1 003#8000800000000800
(1790665599.711630) can0 011#01800F7FF7FF1D1B
(1790665599.711731) can0 012#02809C7FF803281C
(1790665599.711794) can1 011#0180627FF7F61F1A
(1790665599.711882) can0 013#0380107FF8001F1A
(1790665599.711922) can1 012#0280117FF7F41D1A
(1790665599.712007) can0 014#0480127FF805261B
(1790665599.712010) can1 013#037FFC7FF8171C19
(1790665599.712111) can0 015#057FFD7FF7FF281B
(1790665599.712146) can1 014#047FEB7FF7FF2713
(1790665599.712219) can0 016#067FEB8008192319
(1790665599.712258) can1 015#0580247FF7FC1D1A
(1790665599.712384) can1 016#0680117FF8021F1A
(1790665599.718821) can0 004#8000800000000800
(1790665599.718855) can0 005#8000800000000800
(1790665599.718856) can0 006#8000800000000800
(1790665599.718893) can0 001#8000800000000800
(1790665599.718895) can0 002#8000800000000800
(1790665599.718939) can0 003#8000800000000800
(1790665599.718941) can1 004#8000800000000800
(1790665599.718978) can1 005#8000800000000800
(1790665599.718979) can1 006#8000800000000800
(1790665599.719012) can1 001#8000800000000800
(1790665599.719013) can1 002#8000800000000800
(1790665599.719048) can1 003#8000800000000800
(1790665599.719696) can0 011#01800F7FF80C1D1B
(1790665599.719763) can0 012#02809C7FF801281C
(1790665599.719799) can1 011#0180627FF7FC1F1A
(1790665599.719888) can0 013#0380107FF8001F1A
(1790665599.719933) can1 012#0280117FF7FB1D1A
(1790665599.720016) can0 014#0480127FF7F5261B
(1790665599.720052) can1 013#037FFC7FF7F91C19
(1790665599.720146) can0 015#057FFD7FF801281B
(1790665599.720182) can1 014#047FEB7FF7F72713
(1790665599.720266) can0 016#067FEB7FF7FF2319
(1790665599.720304) can1 015#0580247FF8001D1A
(1790665599.720419) can1 016#0680117FF8051F1A
(1790665599.726803) can0 004#8000800000000800
(1790665599.726829) can0 005#8000800000000800
(1790665599.726873) can0 006#8000800000000800
(1790665599.726875) can0 001#8000800000000800
(1790665599.726913) can0 002#8000800000000800
(1790665599.726915) can0 003#8000800000000800
(1790665599.726957) can1 004#8000800000000800
(1790665599.726994) can1 005#8000800000000800
(1790665599.727030) can1 006#8000800000000800
(1790665599.727032) can1 001#8000800000000800
(1790665599.727065) can1 002#8000800000000800
(1790665599.727109) can1 003#8000800000000800
(1790665599.727648) can0 011#01800F7FF8011D1B
(1790665599.727772) can0 012#02809C7FF7F4281C
(1790665599.727808) can1 011#0180627FF7FA1F1A
(1790665599.727896) can0 013#0380107FF8011F1A
(1790665599.727936) can1 012#0280117FF7F41D1A
(1790665599.728020) can0 014#0480127FF7F3261B
(1790665599.728023) can1 013#037FFC7FF7FB1C19
(1790665599.728164) can0 015#057FFD7FF803281B
(1790665599.728185) can1 014#047FEB7FF7FB2713
(1790665599.728232) can0 016#067FEB7FF8102319
(1790665599.728272) can1 015#0580247FF8001D1A
(1790665599.728373) can1 016#0680117FF8001F1A
(1790665599.734815) can0 004#8000800000000800
(1790665599.734824) can0 005#8000800000000800
(1790665599.734853) can0 006#8000800000000800
(1790665599.734854) can0 001#8000800000000800
(1790665599.734889) can0 002#8000800000000800
(1790665599.734944) can1 004#8000800000000800
(1790665599.734942) can0 003#8000800000000800
(1790665599.734971) can1 005#8000800000000800
(1790665599.734972) can1 006#8000800000000800
(1790665599.735015) can1 001#8000800000000800
(1790665599.735051) can1 002#8000800000000800
(1790665599.735053) can1 003#8000800000000800
(1790665599.735662) can0 011#01800F7FF7FB1D1B
(1790665599.735730) can0 012#02809C7FF7FE281C
(1790665599.735816) can1 011#0180627FF7F91F1A
(1790665599.735862) can0 013#0380107FF7FF1F1A
(1790665599.735903) can1 012#0280117FF7F21D1A
(1790665599.735972) can0 014#0480127FF7FC261B
(1790665599.736028) can1 013#037FFC7FF8021C19
(1790665599.736107) can0 015#057FFD7FF804281B
(1790665599.736156) can1 014#047FEB7FF7FF2713
(1790665599.736213) can0 016#067FEB7FF8012319
(1790665599.736262) can1 015#0580247FF7F21D1A
(1790665599.736379) can1 016#0680117FF7F81F1A
(1790665599.742816) can0 004#8000800000000800
(1790665599.742853) can0 005#8000800000000800
(1790665599.742854) can0 006#8000800000000800
(1790665599.742884) can0 001#8000800000000800
(1790665599.742885) can0 002#8000800000000800
(1790665599.742925) can0 003#8000800000000800
(1790665599.742965) can1 004#8000800000000800
(1790665599.742967) can1 005#8000800000000800
(1790665599.743014) can1 006#8000800000000800
(1790665599.743017) can1 001#8000800000000800
(1790665599.743017) can1 002#8000800000000800
(1790665599.743112) can1 003#8000800000000800
(1790665599.743688) can0 011#01800F7FF8041D1B
(1790665599.743786) can0 012#02809C7FF803281C
(1790665599.743821) can1 011#0180627FF8001F1A
(1790665599.743910) can0 013#0380107FF7FF1F1A
(1790665599.743946) can1 012#0280117FF7F51D1A
(1790665599.744039) can0 014#0480127FF7FA261B
(1790665599.744042) can1 013#037FFC7FF8021C19
(1790665599.744139) can0 015#057FFD7FF80C281B
(1790665599.744175) can1 014#047FEB7FF7FB2713
(1790665599.744243) can0 016#067FEB7FF8082319
(1790665599.744279) can1 015#0580247FF7F01D1A
(1790665599.744386) can1 016#0680117FF7FC1F1A
(1790665599.750781) can0 004#8000800000000800
(1790665599.750858) can0 005#8000800000000800
(1790665599.750860) can0 006#8000800000000800
(1790665599.750860) can0 001#8000800000000800
(1790665599.750890) can0 002#8000800000000800
(1790665599.750926) can1 004#8000800000000800
(1790665599.750891) can0 003#8000800000000800
(1790665599.751000) can1 005#8000800000000800
(1790665599.751003) can1 006#8000800000000800
(1790665599.751004) can1 001#8000800000000800
(1790665599.751015) can1 002#8000800000000800
(1790665599.751066) can1 003#8000800000000800
(1790665599.751640) can0 011#01800F7FF80E1D1B
(1790665599.751726) can0 012#02809C7FF7FE281C
(1790665599.751770) can1 011#0180627FF8011F1A
(1790665599.751855) can0 013#0380107FF8001F1A
(1790665599.751894) can1 012#0280117FF8071D1A
(1790665599.751988) can0 014#0480127FF7FB261B
(1790665599.752019) can1 013#037FFC7FF7F81C19
(1790665599.752097) can0 015#057FFD7FF80A281B
(1790665599.752133) can1 014#047FEB7FF7FE2713
(1790665599.752200) can0 016#067FEB7FF8032319
(1790665599.752253) can1 015#0580248008001D1A
(1790665599.752367) can1 016#0680117FF7F61F1A
(1790665599.758779) can0 004#8000800000000800
(1790665599.758808) can0 005#8000800000000800
(1790665599.758853) can0 006#8000800000000800
(1790665599.758855) can0 001#8000800000000800
(1790665599.758892) can0 002#8000800000000800
(1790665599.758894) can0 003#8000800000000800
(1790665599.758934) can1 004#8000800000000800
(1790665599.758937) can1 005#8000800000000800
(1790665599.758981) can1 006#8000800000000800
(1790665599.758982) can1 001#8000800000000800
(1790665599.759007) can1 002#8000800000000800
(1790665599.759060) can1 003#8000800000000800
(1790665599.759640) can0 011#01800F7FF80B1D1B
(1790665599.759743) can0 012#02809C7FF7FE281C
(1790665599.759783) can1 011#0180627FF7FC1F1A
(1790665599.759859) can0 013#0380107FF7FF1F1A
(1790665599.759896) can1 012#0280117FF7F91D1A
(1790665599.759968) can0 014#0480127FF800261B
(1790665599.760047) can1 013#037FFC7FF7FA1C19
(1790665599.760099) can0 015#057FFD7FF80B281B
(1790665599.760134) can1 014#047FEB7FF7F52713
(1790665599.760227) can0 016#067FEB7FF8002319
(1790665599.760271) can1 015#0580247FF7FF1D1A
(1790665599.760357) can1 016#0680117FF7FA1F1A
(1790665599.766850) can0 004#8000800000000800
(1790665599.766860) can0 005#8000800000000800
(1790665599.766885) can0 006#8000800000000800
(1790665599.766886) can0 001#8000800000000800
(1790665599.766922) can0 002#8000800000000800
(1790665599.766963) can0 003#8000800000000800
(1790665599.766964) can1 004#8000800000000800
(1790665599.767002) can1 005#8000800000000800
(1790665599.767004) can1 006#8000800000000800
(1790665599.767044) can1 001#8000800000000800
(1790665599.767092) can1 002#8000800000000800
(1790665599.767098) can1 003#8000800000000800
(1790665599.767660) can0 011#01800F7FF8131D1B
(1790665599.767761) can0 012#02809C7FF801281C
(1790665599.767841) can1 011#0180627FF80A1F1A
(1790665599.767893) can0 013#0380107FF8021F1A
(1790665599.767933) can1 012#0280117FF7F41D1A
(1790665599.768001) can0 014#0480127FF7FF261B
(1790665599.768062) can1 013#037FFC7FF7F81C19
(1790665599.768141) can0 015#057FFD7FF803281B
(1790665599.768192) can1 014#047FEB7FF7FC2713
(1790665599.768244) can0 016#067FEB7FF8002319
(1790665599.768309) can1 015#0580247FF8031D1A
(1790665599.768438) can1 016#0680117FF7FB1F1A
(1790665599.774783) can0 004#8000800000000800
(1790665599.774803) can0 005#8000800000000800
(1790665599.774844) can0 006#8000800000000800
(1790665599.774845) can0 001#8000800000000800
(1790665599.774887) can0 002#8000800000000800
(1790665599.774889) can0 003#8000800000000800
(1790665599.774923) can1 004#8000800000000800
(1790665599.774964) can1 005#8000800000000800
(1790665599.774966) can1 006#8000800000000800
(1790665599.775006) can1 001#8000800000000800
(1790665599.775008) can1 002#8000800000000800
(1790665599.775041) can1 003#8000800000000800
(1790665599.775674) can0 011#01800F7FF8101D1B
(1790665599.775746) can0 012#02809C7FF7FA281C
(1790665599.775783) can1 011#0180627FF80F1F1A
(1790665599.775860) can0 013#0380107FF7FD1F1A
(1790665599.775904) can1 012#0280117FF7FD1D1A
(1790665599.775965) can0 014#0480127FF806261B
(1790665599.776014) can1 013#037FFC7FF7FC1C19
(1790665599.776109) can0 015#057FFD7FF806281B
(1790665599.776147) can1 014#047FEB7FF7FC2713
(1790665599.776223) can0 016#067FEB7FF7FF2319
(1790665599.776259) can1 015#0580247FF8011D1A
(1790665599.776378) can1 016#0680117FF7F71F1A
(1790665599.782781) can0 004#8000800000000800
(1790665599.782806) can0 005#8000800000000800
(1790665599.782808) can0 006#8000800000000800
(1790665599.782852) can0 001#8000800000000800
(1790665599.782854) can0 002#8000800000000800
(1790665599.782881) can0 003#8000800000000800
(1790665599.782927) can1 004#8000800000000800
(1790665599.782929) can1 005#8000800000000800
(1790665599.782963) can1 006#8000800000000800
(1790665599.783003) can1 001#8000800000000800
(1790665599.783005) can1 002#8000800000000800
(1790665599.783058) can1 003#8000800000000800
(1790665599.783642) can0 011#01800F7FF8101D1B
(1790665599.783739) can0 012#02809C7FF805281C
(1790665599.783775) can1 011#0180627FF8081F1A
(1790665599.783856) can0 013#0380107FF7FD1F1A
(1790665599.783893) can1 012#0280117FF8021D1A
(1790665599.783970) can0 014#0480127FF804261B
(1790665599.784014) can1 013#037FFC7FF8021C19
(1790665599.784095) can0 015#057FFD7FF800281B
(1790665599.784131) can1 014#047FEB7FF8022713
(1790665599.784198) can0 016#067FEB7FF7F92319
(1790665599.784250) can1 015#0580247FF7EF1D1A
(1790665599.784354) can1 016#0680117FF7FD1F1A
(1790665599.790783) can0 004#8000800000000800
(1790665599.790818) can0 005#8000800000000800
(1790665599.790858) can0 006#8000800000000800
(1790665599.790859) can0 001#8000800000000800
(1790665599.790900) can0 002#8000800000000800
(1790665599.790902) can0 003#8000800000000800
(1790665599.790937) can1 004#8000800000000800
(1790665599.790978) can1 005#8000800000000800
(1790665599.790980) can1 006#8000800000000800
(1790665599.791019) can1 001#8000800000000800
(1790665599.791021) can1 002#8000800000000800
(1790665599.791053) can1 003#8000800000000800
(1790665599.791644) can0 011#01800F7FF8111D1B
(1790665599.791733) can0 012#02809C7FF7F7281C
(1790665599.791783) can1 011#0180627FF7FF1F1A
(1790665599.791864) can0 013#0380107FF7FE1F1A
(1790665599.791915) can1 012#0280117FF7F91D1A
(1790665599.791977) can0 014#0480127FF7FC261B
(1790665599.792025) can1 013#037FFC7FF7FC1C19
(1790665599.792102) can0 015#057FFD7FF7FE281B
(1790665599.792154) can1 014#047FEB7FF7FC2713
(1790665599.792232) can0 016#067FEB7FF7FD2319
(1790665599.792270) can1 015#0580247FF7EF1D1A
(1790665599.792390) can1 016#0680117FF8031F1A
(1790665599.798769) can0 004#8000800000000800
(1790665599.798791) can0 005#8000800000000800
(1790665599.798836) can0 006#8000800000000800
(1790665599.798838) can0 001#8000800000000800
(1790665599.798880) can0 002#8000800000000800
(1790665599.798882) can0 003#8000800000000800
(1790665599.798922) can1 004#8000800000000800
(1790665599.798924) can1 005#8000800000000800
(1790665599.798955) can1 006#8000800000000800
(1790665599.798994) can1 001#8000800000000800
(1790665599.798996) can1 002#8000800000000800
(1790665599.799047) can1 003#8000800000000800
(1790665599.799619) can0 011#01800F7FF8121D1B
(1790665599.799736) can0 012#02809C7FF801281C
(1790665599.799778) can1 011#0180627FF7F91F1A
(1790665599.799846) can0 013#0380107FF8001F1A
(1790665599.799900) can1 012#0280117FF8071D1A
(1790665599.799963) can0 014#0480127FF800261B
(1790665599.800009) can1 013#037FFC7FF7FA1C19
(1790665599.800094) can0 015#057FFD7FF805281B
(1790665599.800142) can1 014#047FEB7FF7FE2713
(1790665599.800193) can0 016#067FEB7FF8022319
(1790665599.800244) can1 015#0580247FF7FC1D1A
(1790665599.800374) can1 016#0680117FF7FF1F1A
(1790665599.806789) can0 004#8000800000000800
(1790665599.806805) can0 005#8000800000000800
(1790665599.806819) can0 006#8000800000000800
(1790665599.806856) can0 001#8000800000000800
(1790665599.806858) can0 002#8000800000000800
(1790665599.806892) can0 003#8000800000000800
(1790665599.806899) can1 004#8000800000000800
(1790665599.806935) can1 005#8000800000000800
(1790665599.806937) can1 006#8000800000000800
(1790665599.806974) can1 001#8000800000000800
(1790665599.806976) can1 002#8000800000000800
(1790665599.807017) can1 003#8000800000000800
(1790665599.807622) can0 011#01800F7FF8021D1B
(1790665599.807748) can0 012#02809C7FF800281C
(1790665599.807784) can1 011#0180627FF7F91F1A
(1790665599.807846) can0 013#0380107FF8001F1A
(1790665599.807883) can1 012#0280117FF8051D1A
(1790665599.807971) can0 014#0480127FF806261B
(1790665599.808010) can1 013#037FFC7FF8091C19
(1790665599.808095) can0 015#057FFD7FF809281B
(1790665599.808132) can1 014#047FEB7FF8082713
(1790665599.808225) can0 016#067FEB7FF7FE2319
(1790665599.808262) can1 015#0580247FF7F11D1A
(1790665599.808355) can1 016#0680117FF7FB1F1A
(1790665599.814776) can0 004#8000800000000800
(1790665599.814818) can0 005#8000800000000800
(1790665599.814819) can0 006#8000800000000800
(1790665599.814858) can0 001#8000800000000800
(1790665599.814897) can0 002#8000800000000800
(1790665599.814899) can0 003#8000800000000800
(1790665599.814938) can1 004#8000800000000800
(1790665599.814940) can1 005#8000800000000800
(1790665599.814980) can1 006#8000800000000800
(1790665599.814982) can1 001#8000800000000800
(1790665599.815041) can1 002#8000800000000800
(1790665599.815057) can1 003#8000800000000800
(1790665599.815641) can0 011#01800F7FF8081D1B
(1790665599.815755) can0 012#02809C7FF806281C
(1790665599.815791) can1 011#0180627FF80B1F1A
(1790665599.815852) can0 013#0380107FF8001F1A
(1790665599.815911) can1 012#0280117FF8061D1A
(1790665599.815977) can0 014#0480127FF7FA261B
(1790665599.816021) can1 013#037FFC7FF7FC1B19
(1790665599.816104) can0 015#057FFD7FF805281B
(1790665599.816138) can1 014#047FEB7FF8032713
(1790665599.816228) can0 016#067FEB7FF80C2319
(1790665599.816264) can1 015#0580247FF7FF1D1A
(1790665599.816382) can1 016#0680117FF7FE1F1A
(1790665599.822815) can0 004#8000800000000800
(1790665599.822824) can0 005#8000800000000800
(1790665599.822842) can0 006#8000800000000800
(1790665599.822886) can0 001#8000800000000800
(1790665599.822887) can0 002#8000800000000800
(1790665599.822933) can0 003#8000800000000800
(1790665599.822935) can1 004#8000800000000800
(1790665599.822964) can1 005#8000800000000800
(1790665599.823007) can1 006#8000800000000800
(1790665599.823010) can1 001#8000800000000800
(1790665599.823060) can1 002#8000800000000800
(1790665599.823063) can1 003#8000800000000800
(1790665599.823746) can0 011#01800F7FF8041D1B
(1790665599.823768) can0 012#02809C7FF805281C
(1790665599.823802) can1 011#0180627FF7FE1F1A
(1790665599.823894) can0 013#0380107FF7FF1F1A
(1790665599.823929) can1 012#0280117FF7FB1D1A
(1790665599.824006) can0 014#0480127FF7FF261B
(1790665599.824055) can1 013#037FFC7FF7F81C19
(1790665599.824132) can0 015#057FFD7FF803281B
(1790665599.824168) can1 014#047FEB7FF7FD2713
(1790665599.824236) can0 016#067FEB7FF8052319
(1790665599.824272) can1 015#0580247FF7FD1D1A
(1790665599.824394) can1 016#0680117FF7F61F1A
(1790665599.830756) can0 004#8000800000000800
(1790665599.830782) can0 005#8000800000000800
(1790665599.830836) can0 006#8000800000000800
(1790665599.830837) can0 001#8000800000000800
(1790665599.830871) can0 002#8000800000000800
(1790665599.830875) can0 003#8000800000000800
(1790665599.830910) can1 004#8000800000000800
(1790665599.830913) can1 005#8000800000000800
(1790665599.830955) can1 006#8000800000000800
(1790665599.830957) can1 001#8000800000000800
(1790665599.830979) can1 002#8000800000000800
(1790665599.831028) can1 003#8000800000000800
(1790665599.831607) can0 011#01800F7FF80F1D1B
(1790665599.831724) can0 012#02809C7FF801281C
(1790665599.831757) can1 011#0180627FF80F1F1A
(1790665599.831821) can0 013#0380107FF7FF1F1A
(1790665599.831868) can1 012#0280117FF8031D1A
(1790665599.831953) can0 014#0480127FF804261B
(1790665599.831992) can1 013#037FFC7FF7F61C19
(1790665599.832063) can0 015#057FFD7FF7E9281B
(1790665599.832120) can1 014#047FEB7FF8002713
(1790665599.832197) can0 016#067FEB8008012319
(1790665599.832234) can1 015#0580247FF8001D1A
(1790665599.832341) can1 016#0680117FF7FA1F1A
(1790665599.838836) can0 004#8000800000000800
(1790665599.838869) can0 005#8000800000000800
(1790665599.838920) can1 004#8000800000000800
(1790665599.838870) can0 006#8000800000000800
(1790665599.838962) can1 005#8000800000000800
(1790665599.838870) can0 001#8000800000000800
(1790665599.838964) can1 006#8000800000000800
(1790665599.838877) can0 002#8000800000000800
(1790665599.838919) can0 003#8000800000000800
(1790665599.839022) can1 001#8000800000000800
(1790665599.839025) can1 002#8000800000000800
(1790665599.839044) can1 003#8000800000000800
(1790665599.839656) can0 011#01800F7FF80E1D1B
(1790665599.839762) can0 012#02809C7FF7EF281C
(1790665599.839796) can1 011#0180627FF8011F1A
(1790665599.839876) can0 013#0380107FF7FE1F1A
(1790665599.839912) can1 012#0280117FF7FF1D1A
(1790665599.840000) can0 014#0480127FF7FF261B
(1790665599.840039) can1 013#037FFC7FF8071C19
(1790665599.840126) can0 015#057FFD7FF803281B
(1790665599.840161) can1 014#047FEB7FF8012713
(1790665599.840228) can0 016#067FEB7FF7F92319
(1790665599.840265) can1 015#0580247FF8021D1A
(1790665599.840384) can1 016#0680117FF7FF1F1A
(1790665599.846815) can0 004#8000800000000800
(1790665599.846839) can0 005#8000800000000800
(1790665599.846865) can0 006#8000800000000800
(1790665599.846906) can0 001#8000800000000800
(1790665599.846907) can0 002#8000800000000800
(1790665599.846957) can0 003#8000800000000800
(1790665599.846960) can1 004#8000800000000800
(1790665599.846979) can1 005#8000800000000800
(1790665599.847024) can1 006#8000800000000800
(1790665599.847026) can1 001#8000800000000800
(1790665599.847087) can1 002#8000800000000800
(1790665599.847090) can1 003#8000800000000800
(1790665599.847678) can0 011#01800F7FF80C1D1B
(1790665599.847764) can0 012#02809C7FF800281C
(1790665599.847884) can0 013#0380107FF8011F1A
(1790665599.847825) can1 011#0180627FF7F61F1A
(1790665599.847942) can1 012#0280117FF7F61D1A
(1790665599.848008) can0 014#0480127FF7FA261B
(1790665599.848052) can1 013#037FFC7FF8061C19
(1790665599.848133) can0 015#057FFD7FF803281B
(1790665599.848184) can1 014#047FEB7FF7FC2713
(1790665599.848236) can0 016#067FEB7FF80B2319
(1790665599.848288) can1 015#0580247FF8051D1A
(1790665599.848421) can1 016#0680117FF8021F1A
(1790665599.854804) can0 004#8000800000000800
(1790665599.854865) can0 005#8000800000000800
(1790665599.854867) can0 006#8000800000000800
(1790665599.854867) can0 001#8000800000000800
(1790665599.854904) can0 002#8000800000000800
(1790665599.854913) can0 003#8000800000000800
(1790665599.854963) can1 004#8000800000000800
(1790665599.854966) can1 005#8000800000000800
(1790665599.854967) can1 006#8000800000000800
(1790665599.854995) can1 001#8000800000000800
(1790665599.855030) can1 002#8000800000000800
(1790665599.855074) can1 003#8000800000000800
(1790665599.855661) can0 011#01800F7FF7FF1D1B
(1790665599.855767) can0 012#02809C7FF803281C
(1790665599.855810) can1 011#0180627FF8041F1A
(1790665599.855894) can0 013#0380107FF7FF1F1A
(1790665599.855927) can1 012#0280117FF7FB1D1A
(1790665599.856016) can0 014#0480127FF800261B
(1790665599.856058) can1 013#037FFC7FF7F71C19
(1790665599.856145) can0 015#057FFD7FF7F6281B
(1790665599.856152) can1 014#047FEB7FF7FD2713
(1790665599.856247) can0 016#067FEB7FF8002319
(1790665599.856284) can1 015#0580247FF8011D1A
(1790665599.856376) can1 016#0680117FF7F91F1A
(1790665599.862805) can0 004#8000800000000800
(1790665599.862846) can0 005#8000800000000800
(1790665599.862847) can0 006#8000800000000800
(1790665599.862870) can0 001#8000800000000800
(1790665599.862915) can0 002#8000800000000800
(1790665599.862958) can0 003#8000800000000800
(1790665599.862961) can1 004#8000800000000800
(1790665599.862996) can1 005#8000800000000800
(1790665599.862998) can1 006#8000800000000800
(1790665599.863029) can1 001#8000800000000800
(1790665599.863079) can1 002#8000800000000800
(1790665599.863081) can1 003#8000800000000800
(1790665599.863677) can0 011#01800F7FF8071D1B
(1790665599.863758) can0 012#02809C7FF7FD281C
(1790665599.863820) can1 011#0180627FF8031F1A
(1790665599.863898) can0 013#0380107FF8011F1A
(1790665599.863934) can1 012#0280117FF7FE1D1A
(1790665599.864023) can0 014#0480127FF7EE261B
(1790665599.864062) can1 013#037FFC7FF7ED1C19
(1790665599.864142) can0 015#057FFD7FF7FA281B
(1790665599.864178) can1 014#047FEB7FF7FB2713
(1790665599.864251) can0 016#067FEB7FF7FB2319
(1790665599.864302) can1 015#0580247FF7F61D1A
(1790665599.864409) can1 016#0680117FF8021F1A
(1790665599.870786) can0 004#8000800000000800
(1790665599.870831) can0 005#8000800000000800
(1790665599.870832) can0 006#8000800000000800
(1790665599.870856) can0 001#8000800000000800
(1790665599.870896) can0 002#8000800000000800
(1790665599.870951) can0 003#8000800000000800
(1790665599.870953) can1 004#8000800000000800
(1790665599.870954) can1 005#8000800000000800
(1790665599.870983) can1 006#8000800000000800
(1790665599.870984) can1 001#8000800000000800
(1790665599.871029) can1 002#8000800000000800
(1790665599.871068) can1 003#8000800000000800
(1790665599.871651) can0 011#01800F7FF80C1D1B
(1790665599.871759) can0 012#02809C7FF7F5281C
(1790665599.871796) can1 011#0180627FF8111F1A
(1790665599.871858) can0 013#0380107FF8021F1A
(1790665599.871915) can1 012#0280117FF7F61D1A
(1790665599.871993) can0 014#0480127FF7F8261B
(1790665599.872031) can1 013#037FFC7FF7F01C19
(1790665599.872137) can0 015#057FFD7FF7F5281B
(1790665599.872179) can1 014#047FEB7FF7FF2713
(1790665599.872236) can0 016#067FEB7FF8052319
(1790665599.872271) can1 015#0580247FF8001D1A
(1790665599.872409) can1 016#0680117FF8001F1A
(1790665599.878818) can0 004#8000800000000800
(1790665599.878844) can0 005#8000800000000800
(1790665599.878889) can0 006#8000800000000800
(1790665599.878890) can0 001#8000800000000800
(1790665599.878929) can0 002#8000800000000800
(1790665599.878931) can0 003#8000800000000800
(1790665599.878969) can1 004#8000800000000800
(1790665599.879006) can1 005#8000800000000800
(1790665599.879049) can1 006#8000800000000800
(1790665599.879051) can1 001#8000800000000800
(1790665599.879096) can1 002#8000800000000800
(1790665599.879098) can1 003#8000800000000800
(1790665599.879684) can0 011#01800F7FF8091D1B
(1790665599.879777) can0 012#02809C7FF7FB281C
(1790665599.879810) can1 011#0180627FF7FF1F1A
(1790665599.879882) can0 013#0380107FF8021F1A
(1790665599.879921) can1 012#0280117FF80B1D1A
(1790665599.880037) can0 014#0480127FF7FF261B
(1790665599.880078) can1 013#037FFC7FF7F51C19
(1790665599.880163) can0 015#057FFD7FF804281B
(1790665599.880166) can1 014#047FEB7FF7FA2713
(1790665599.880273) can0 016#067FEB7FF8012319
(1790665599.880291) can1 015#0580247FF7FC1D1A
(1790665599.880389) can1 016#0680117FF7FD1F1A
(1790665599.886772) can0 004#8000800000000800
(1790665599.886796) can0 005#8000800000000800
(1790665599.886842) can0 006#8000800000000800
(1790665599.886843) can0 001#8000800000000800
(1790665599.886881) can0 002#8000800000000800
(1790665599.886926) can1 004#8000800000000800
(1790665599.886883) can0 003#8000800000000800
(1790665599.886928) can1 005#8000800000000800
(1790665599.886963) can1 006#8000800000000800
(1790665599.886965) can1 001#8000800000000800
(1790665599.886995) can1 002#8000800000000800
(1790665599.887040) can1 003#8000800000000800
(1790665599.887607) can0 011#01800F7FF7FB1D1B
(1790665599.887716) can0 012#02809C7FF803281C
(1790665599.887770) can1 011#0180627FF7F51F1A
(1790665599.887847) can0 013#0380107FF7FF1F1A
(1790665599.887894) can1 012#0280117FF7F91D1A
(1790665599.887979) can0 014#0480127FF7F6261B
(1790665599.888015) can1 013#037FFC7FF7FD1C19
(1790665599.888095) can0 015#057FFD7FF802281B
(1790665599.888167) can1 014#047FEB7FF7FA2713
(1790665599.888223) can0 016#067FEB7FF7FE2319
(1790665599.888258) can1 015#0580247FE7FD1D1A
(1790665599.888353) can1 016#0680117FF7F31F1A
(1790665599.894821) can0 004#8000800000000800
(1790665599.894888) can0 005#8000800000000800
(1790665599.894889) can0 006#8000800000000800
(1790665599.894889) can0 001#8000800000000800
(1790665599.894917) can0 002#8000800000000800
(1790665599.894973) can0 003#8000800000000800
(1790665599.894976) can1 004#8000800000000800
(1790665599.894977) can1 005#8000800000000800
(1790665599.895001) can1 006#8000800000000800
(1790665599.895037) can1 001#8000800000000800
(1790665599.895081) can1 002#8000800000000800
(1790665599.895083) can1 003#8000800000000800
(1790665599.895650) can0 011#01800F7FF7F71D1B
(1790665599.895781) can0 012#02809C7FF800281C
(1790665599.895817) can1 011#0180627FF7FC1F1A
(1790665599.895901) can0 013#0380107FF7FE1F1A
(1790665599.895937) can1 012#0280117FF8071D1A
(1790665599.896013) can0 014#0480127FF7FB261B
(1790665599.896052) can1 013#037FFC7FF8111C19
(1790665599.896156) can0 015#057FFD7FF801281B
(1790665599.896200) can1 014#047FEB7FF7F92713
(1790665599.896255) can0 016#067FEB7FF8022319
(1790665599.896307) can1 015#0580247FF7FF1D1A
(1790665599.896413) can1 016#0680117FF7F81F1A
(1790665599.902795) can0 004#8000800000000800
(1790665599.902834) can0 005#8000800000000800
(1790665599.902872) can0 006#8000800000000800
(1790665599.902873) can0 001#8000800000000800
(1790665599.902900) can0 002#8000800000000800
(1790665599.902902) can0 003#8000800000000800
(1790665599.902941) can1 004#8000800000000800
(1790665599.902944) can1 005#8000800000000800
(1790665599.902981) can1 006#8000800000000800
(1790665599.902983) can1 001#8000800000000800
(1790665599.903013) can1 002#8000800000000800
(1790665599.903059) can1 003#8000800000000800
(1790665599.903670) can0 011#01800F7FF7F61D1B
(1790665599.903737) can0 012#02809C7FF809281C
(1790665599.903789) can1 011#0180627FF7FF1F1A
(1790665599.903866) can0 013#0380107FF8001F1A
(1790665599.903906) can1 012#0280117FF8091D1A
(1790665599.903993) can0 014#0480127FF80A261B
(1790665599.904030) can1 013#037FFC7FF80B1C19
(1790665599.904102) can0 015#057FFD7FF800281B
(1790665599.904181) can1 014#047FEB7FF7FC2713
(1790665599.904231) can0 016#067FEB7FF8062319
(1790665599.904267) can1 015#0580247FF7FB1D1A
(1790665599.904388) can1 016#0680117FF7FC1F1A
(1790665599.910793) can0 004#8000800000000800
(1790665599.910817) can0 005#8000800000000800
(1790665599.910819) can0 006#8000800000000800
(1790665599.910844) can0 001#8000800000000800
(1790665599.910845) can0 002#8000800000000800
(1790665599.910880) can0 003#8000800000000800
(1790665599.910923) can1 004#8000800000000800
(1790665599.910925) can1 005#8000800000000800
(1790665599.910961) can1 006#8000800000000800
(1790665599.911000) can1 001#8000800000000800
(1790665599.911002) can1 002#8000800000000800
(1790665599.911036) can1 003#8000800000000800
(1790665599.911618) can0 011#01800F7FF7FB1D1B
(1790665599.911721) can0 012#02809C7FF80B281C
(1790665599.911771) can1 011#0180627FF7FA1F1A
(1790665599.911847) can0 013#0380107FF7FF1F1A
(1790665599.911883) can1 012#0280117FF7FA1D1A
(1790665599.911974) can0 014#0480127FF807261B
(1790665599.912010) can1 013#037FFC7FF7F71C19
(1790665599.912087) can0 015#057FFD7FF805281B
(1790665599.912134) can1 014#047FEB7FF7FB2713
(1790665599.912194) can0 016#067FEB7FF8092319
(1790665599.912241) can1 015#0580247FF7F91D1A
(1790665599.912353) can1 016#0680117FF7F91F1A
(1790665599.918792) can0 004#8000800000000800
(1790665599.918815) can0 005#8000800000000800
(1790665599.918862) can0 006#8000800000000800
(1790665599.918864) can0 001#8000800000000800
(1790665599.918899) can0 002#8000800000000800
(1790665599.918901) can0 003#8000800000000800
(1790665599.918940) can1 004#8000800000000800
(1790665599.918984) can1 005#8000800000000800
(1790665599.918985) can1 006#8000800000000800
(1790665599.919017) can1 001#8000800000000800
(1790665599.919019) can1 002#8000800000000800
(1790665599.919053) can1 003#8000800000000800
(1790665599.919649) can0 011#01800F7FF80B1D1B
(1790665599.919760) can0 012#02809C7FF7FA281C
(1790665599.919798) can1 011#0180627FF80D1F1A
(1790665599.919855) can0 013#0380107FF7FE1F1A
(1790665599.919902) can1 012#0280117FF7FF1D1A
(1790665599.919983) can0 014#0480127FF7FD261B
(1790665599.920035) can1 013#037FFC7FF7FF1C19
(1790665599.920117) can0 015#057FFD7FF807281B
(1790665599.920162) can1 014#047FEB7FF8042713
(1790665599.920226) can0 016#067FEB7FF7F92319
(1790665599.920276) can1 015#0580247FF7EC1D1A
(1790665599.920376) can1 016#0680117FF7F11F1A
(1790665599.926820) can0 004#8000800000000800
(1790665599.926847) can0 005#8000800000000800
(1790665599.926871) can0 006#8000800000000800
(1790665599.926872) can0 001#8000800000000800
(1790665599.926908) can0 002#8000800000000800
(1790665599.926910) can0 003#8000800000000800
(1790665599.926944) can1 004#8000800000000800
(1790665599.927002) can1 005#8000800000000800
(1790665599.927004) can1 006#8000800000000800
(1790665599.927005) can1 001#8000800000000800
(1790665599.927022) can1 002#8000800000000800
(1790665599.927069) can1 003#8000800000000800
(1790665599.927661) can0 011#01800F7FF8081D1B
(1790665599.927770) can0 012#02809C7FF7FF281C
(1790665599.927813) can1 011#0180627FF8051F1A
(1790665599.927886) can0 013#0380107FF8001F1A
(1790665599.927922) can1 012#0280117FF8011D1A
(1790665599.927991) can0 014#0480127FF807261B
(1790665599.928027) can1 013#037FFC7FF8081C19
(1790665599.928126) can0 015#057FFD7FF808281B
(1790665599.928171) can1 014#047FEB7FF7FC2713
(1790665599.928229) can0 016#067FEB7FF7FD2319
(1790665599.928281) can1 015#0580247FF7FF1D1A
(1790665599.928386) can1 016#0680117FF7F81F1A
(1790665599.934776) can0 004#8000800000000800
(1790665599.934791) can0 005#8000800000000800
(1790665599.934803) can0 006#8000800000000800
(1790665599.934804) can0 001#8000800000000800
(1790665599.934839) can0 002#8000800000000800
(1790665599.934882) can0 003#8000800000000800
(1790665599.934884) can1 004#8000800000000800
(1790665599.934925) can1 005#8000800000000800
(1790665599.934927) can1 006#8000800000000800
(1790665599.934962) can1 001#8000800000000800
(1790665599.934964) can1 002#8000800000000800
(1790665599.935037) can1 003#8000800000000800
(1790665599.935611) can0 011#01800F7FF7FD1D1B
(1790665599.935735) can0 012#02809C7FF804281C
(1790665599.935771) can1 011#0180627FF8001F1A
(1790665599.935839) can0 013#0380107FF7FF1F1A
(1790665599.935874) can1 012#0280117FF8011D1A
(1790665599.935959) can0 014#0480127FF802261B
(1790665599.935998) can1 013#037FFC7FF7FC1C19
(1790665599.936087) can0 015#057FFD7FF807281B
(1790665599.936132) can1 014#047FEB7FF7FA2713
(1790665599.936214) can0 016#067FEB7FF8032319
(1790665599.936258) can1 015#0580247FF8021D1A
(1790665599.936344) can1 016#0680117FF7F61F1A
(1790665599.942762) can0 004#8000800000000800
(1790665599.942806) can0 005#8000800000000800
(1790665599.942807) can0 006#8000800000000800
(1790665599.942840) can0 001#8000800000000800
(1790665599.942885) can0 002#8000800000000800
(1790665599.942886) can0 003#8000800000000800
(1790665599.942932) can1 004#8000800000000800
(1790665599.942933) can1 005#8000800000000800
(1790665599.942967) can1 006#8000800000000800
(1790665599.942968) can1 001#8000800000000800
(1790665599.942999) can1 002#8000800000000800
(1790665599.943044) can1 003#8000800000000800
(1790665599.943611) can0 011#01800F7FF8041D1B
(1790665599.943719) can0 012#02809C7FF7F9281C
(1790665599.943768) can1 011#0180627FF7FA1F1A
(1790665599.943846) can0 013#0380107FF7FF1F1A
(1790665599.943898) can1 012#0280117FF7F91D1A
(1790665599.943969) can0 014#0480127FF807261B
(1790665599.944006) can1 013#037FFC7FF7FC1C19
(1790665599.944098) can0 015#057FFD7FF808281B
(1790665599.944140) can1 014#047FEB7FF7FC2713
(1790665599.944217) can0 016#067FEB7FF7FC2319
(1790665599.944259) can1 015#0580247FF8001D1A
(1790665599.944376) can1 016#0680117FF7FE1F1A
(1790665599.950774) can0 004#8000800000000800
(1790665599.950811) can0 005#8000800000000800
(1790665599.950851) can0 006#8000800000000800
(1790665599.950853) can0 001#8000800000000800
(1790665599.950928) can0 002#8000800000000800
(1790665599.950930) can0 003#8000800000000800
(1790665599.950938) can1 004#8000800000000800
(1790665599.950939) can1 005#8000800000000800
(1790665599.950975) can1 006#8000800000000800
(1790665599.950976) can1 001#8000800000000800
(1790665599.951007) can1 002#8000800000000800
(1790665599.951053) can1 003#8000800000000800
(1790665599.951616) can0 011#01800F7FF8031D1B
(1790665599.951731) can0 012#02809C7FF807281C
(1790665599.951777) can1 011#0180627FF7F91F1A
(1790665599.951854) can0 013#0380107FF7FE1F1A
(1790665599.951906) can1 012#0280117FF8051D1A
(1790665599.951977) can0 014#0480127FF7FC261B
(1790665599.952013) can1 013#037FFC7FF7FB1C19
(1790665599.952102) can0 015#057FFD7FF7FB281B
(1790665599.952146) can1 014#047FEB7FF7FA2713
(1790665599.952226) can0 016#067FEB7FF8002319
(1790665599.952271) can1 015#0580247FF7F81D1A
(1790665599.952384) can1 016#0680117FF7FC1F1A
(1790665599.958776) can0 004#8000800000000800
(1790665599.958816) can0 005#8000800000000800
(1790665599.958817) can0 006#8000800000000800
(1790665599.958851) can0 001#8000800000000800
(1790665599.958895) can0 002#8000800000000800
(1790665599.958897) can0 003#8000800000000800
(1790665599.958938) can1 004#8000800000000800
(1790665599.958939) can1 005#8000800000000800
(1790665599.958976) can1 006#8000800000000800
(1790665599.959015) can1 001#8000800000000800
(1790665599.959016) can1 002#8000800000000800
(1790665599.959059) can1 003#8000800000000800
(1790665599.959634) can0 011#01800F7FF7FA1D1B
(1790665599.959732) can0 012#02809C7FF7FD281C
(1790665599.959795) can1 011#0180627FF8051F1A
(1790665599.959861) can0 013#0380107FF8011F1A
(1790665599.959896) can1 012#0280117FF7F81D1A
(1790665599.959983) can0 014#0480127FF802261B
(1790665599.960019) can1 013#037FFC7FF7FB1C19
(1790665599.960108) can0 015#057FFD7FF807281B
(1790665599.960153) can1 014#047FEB7FF7F92713
(1790665599.960229) can0 016#067FEB7FF8132319
(1790665599.960265) can1 015#0580247FF7FE1D1A
(1790665599.960385) can1 016#0680117FF7FE1F1A
(1790665599.966822) can0 004#8000800000000800
(1790665599.966827) can0 005#8000800000000800
(1790665599.966839) can0 006#8000800000000800
(1790665599.966840) can0 001#8000800000000800
(1790665599.966870) can0 002#8000800000000800
(1790665599.966872) can0 003#8000800000000800
(1790665599.966912) can1 004#8000800000000800
(1790665599.966913) can1 005#8000800000000800
(1790665599.966952) can1 006#8000800000000800
(1790665599.966953) can1 001#8000800000000800
(1790665599.966986) can1 002#8000800000000800
(1790665599.967026) can1 003#8000800000000800
(1790665599.967622) can0 011#01800F7FF8031D1B
(1790665599.967715) can0 012#02809C7FF7FF281C
(1790665599.967768) can1 011#0180627FF8011F1A
(1790665599.967844) can0 013#0380107FF7FE1F1A
(1790665599.967889) can1 012#0280117FF8061D1A
(1790665599.967977) can0 014#0480127FF7F6261B
(1790665599.968002) can1 013#037FFC7FF7FB1C19
(1790665599.968078) can0 015#057FFD7FF809281B
(1790665599.968116) can1 014#047FEB7FF7F82713
(1790665599.968219) can0 016#067FEB7FF8052319
(1790665599.968263) can1 015#0580247FF8051D1A
(1790665599.968347) can1 016#0680117FF7F41F1A
(1790665599.974759) can0 004#8000800000000800
(1790665599.974800) can0 005#8000800000000800
(1790665599.974801) can0 006#8000800000000800
(1790665599.974838) can0 001#8000800000000800
(1790665599.974839) can0 002#8000800000000800
(1790665599.974875) can0 003#8000800000000800
(1790665599.974918) can1 004#8000800000000800
(1790665599.974920) can1 005#8000800000000800
(1790665599.974963) can1 006#8000800000000800
(1790665599.974964) can1 001#8000800000000800
(1790665599.975015) can1 002#8000800000000800
(1790665599.975034) can1 003#8000800000000800
(1790665599.975613) can0 011#01800F7FF7FE1D1B
(1790665599.975728) can0 012#02809C7FF7FE281C
(1790665599.975833) can0 013#0380107FF8011F1A
(1790665599.975764) can1 011#0180627FF8081F1A
(1790665599.975961) can0 014#0480127FF803261B
(1790665599.975884) can1 012#0280117FF8021D1A
(1790665599.976001) can1 013#037FFC7FF7F61C19
(1790665599.976086) can0 015#057FFD7FF805281B
(1790665599.976124) can1 014#047FEB7FF8022713
(1790665599.976194) can0 016#067FEB7FF7FE2319
(1790665599.976250) can1 015#0580247FF7F91D1A
(1790665599.976355) can1 016#0680117FF8031F1A
(1790665599.982814) can0 004#8000800000000800
(1790665599.982823) can0 005#8000800000000800
(1790665599.982845) can0 006#8000800000000800
(1790665599.982847) can0 001#8000800000000800
(1790665599.982889) can0 002#8000800000000800
(1790665599.982892) can0 003#8000800000000800
(1790665599.982925) can1 004#8000800000000800
(1790665599.982972) can1 005#8000800000000800
(1790665599.982975) can1 006#8000800000000800
(1790665599.982976) can1 001#8000800000000800
(1790665599.983007) can1 002#8000800000000800
(1790665599.983042) can1 003#8000800000000800
(1790665599.983632) can0 011#01800F7FF7F41D1B
(1790665599.983755) can0 012#02809C7FF7F5281C
(1790665599.983784) can1 011#0180627FF8061F1A
(1790665599.983860) can0 013#0380107FF8001F1A
(1790665599.983897) can1 012#0280117FF8121D1A
(1790665599.983981) can0 014#0480127FF801261B
(1790665599.984018) can1 013#037FFC7FF80F1C19
(1790665599.984091) can0 015#057FFD7FF804281B
(1790665599.984132) can1 014#047FEB7FF7FA2713
(1790665599.984235) can0 016#067FEB7FF7FC2319
(1790665599.984297) can1 015#0580247FF8031D1A
(1790665599.984361) can1 016#0680117FF8001F1A
(1790665599.990944) can0 004#8000800000000800
(1790665599.990969) can0 005#8000800000000800
(1790665599.991018) can0 006#8000800000000800
(1790665599.991019) can0 001#8000800000000800
(1790665599.991054) can0 002#8000800000000800
(1790665599.991055) can0 003#8000800000000800
(1790665599.991105) can1 004#8000800000000800
(1790665599.991108) can1 005#8000800000000800
(1790665599.991137) can1 006#8000800000000800
(1790665599.991170) can1 001#8000800000000800
(1790665599.991172) can1 002#8000800000000800
(1790665599.991215) can1 003#8000800000000800
(1790665599.991792) can0 011#01800F7FF7FD1D1B
(1790665599.991901) can0 012#02809C7FF7FB281C
(1790665599.991951) can1 011#0180627FF8091F1A
(1790665599.992016) can0 013#0380107FF7FD1F1A
(1790665599.992073) can1 012#0280117FF8001D1A
(1790665599.992140) can0 014#0480127FF802261B
(1790665599.992184) can1 013#037FFC7FE8081C19
(1790665599.992264) can0 015#057FFD7FF807281B
(1790665599.992315) can1 014#047FEB7FF7FC2713
(1790665599.992367) can0 016#067FEB7FF7F72319
(1790665599.992419) can1 015#0580247FF7FD1D1A
(1790665599.992550) can1 016#0680117FF7FC1F1A
(1790665599.998819) can0 004#8000800000000800
(1790665599.998874) can0 005#8000800000000800
(1790665599.998876) can0 006#8000800000000800
(1790665599.998898) can0 001#8000800000000800
(1790665599.998938) can0 002#8000800000000800
(1790665599.998939) can0 003#8000800000000800
(1790665599.998980) can1 004#8000800000000800
(1790665599.998982) can1 005#8000800000000800
(1790665599.999020) can1 006#8000800000000800
(1790665599.999021) can1 001#8000800000000800
(1790665599.999051) can1 002#8000800000000800
(1790665599.999097) can1 003#8000800000000800
(1790665599.999697) can0 011#01800F7FF8021D1B
(1790665599.999775) can0 012#02809C7FF7F4281C
(1790665599.999823) can1 011#0180627FF7F91F1A
(1790665599.999902) can0 013#0380107FF7FD1F1A
(1790665599.999950) can1 012#0280117FF7FB1D1A
(1790665600.000025) can0 014#0480127FF807261B
(1790665600.000060) can1 013#037FFC7FF8031C19
(1790665600.000149) can0 015#057FFD7FF801281B
(1790665600.000192) can1 014#047FEB7FF7FB2713
(1790665600.000273) can0 016#067FEB7FF7FE2319
(1790665600.000309) can1 015#0580247FF8011D1A
(1790665600.000425) can1 016#0680117FF8011F1A
(1790665600.006791) can0 004#8000800000000800
(1790665600.006832) can0 005#8000800000000800
(1790665600.006834) can0 006#8000800000000800
(1790665600.006859) can0 001#8000800000000800
(1790665600.006903) can0 002#8000800000000800
(1790665600.006905) can0 003#8000800000000800
(1790665600.006949) can1 004#8000800000000800
(1790665600.006951) can1 005#8000800000000800
(1790665600.006987) can1 006#8000800000000800
(1790665600.006988) can1 001#8000800000000800
(1790665600.007028) can1 002#8000800000000800
(1790665600.007030) can1 003#8000800000000800
(1790665600.007640) can0 011#01800F7FF7FD1D1B
(1790665600.007744) can0 012#02809C7FF7F1281C
(1790665600.007791) can1 011#0180627FF80B1F1A
(1790665600.007869) can0 013#0380107FF8011F1A
(1790665600.007905) can1 012#0280117FF8001D1A
(1790665600.007981) can0 014#0480127FF7FF261B
(1790665600.008031) can1 013#037FFC7FF7F41C19
(1790665600.008117) can0 015#057FFD7FF7FF281B
(1790665600.008155) can1 014#047FEB7FF8052713
(1790665600.008229) can0 016#067FEB8008042319
(1790665600.008302) can1 015#0580247FF7F61D1A
(1790665600.008389) can1 016#0680117FF8031F1A
(1790665600.014802) can0 004#8000800000000800
(1790665600.014840) can0 005#8000800000000800
(1790665600.014841) can0 006#8000800000000800
(1790665600.014865) can0 001#8000800000000800
(1790665600.014908) can0 002#8000800000000800
(1790665600.014909) can0 003#8000800000000800
(1790665600.014953) can1 004#8000800000000800
(1790665600.014955) can1 005#8000800000000800
(1790665600.014993) can1 006#8000800000000800
(1790665600.014994) can1 001#8000800000000800
(1790665600.015037) can1 002#8000800000000800
(1790665600.015038) can1 003#8000800000000800
(1790665600.015649) can0 011#01800F7FF8081D1B
(1790665600.015767) can0 012#02809C7FF7F3281C
(1790665600.015809) can1 011#0180627FF7F71F1A
(1790665600.015874) can0 013#0380107FF7FE1F1A
(1790665600.015924) can1 012#0280117FF7FD1D1A
(1790665600.015994) can0 014#0480127FF809261B
(1790665600.016037) can1 013#037FFC7FF8011C19
