(1790667810.903067) can0 004#FFFFFFFFFFFFFFFD
(1790667810.903098) can0 005#FFFFFFFFFFFFFFFD
(1790667810.903098) can0 006#FFFFFFFFFFFFFFFD
(1790667810.903132) can0 001#FFFFFFFFFFFFFFFD
(1790667810.903171) can0 002#FFFFFFFFFFFFFFFD
(1790667810.903171) can0 003#FFFFFFFFFFFFFFFD
(1790667810.903218) can1 004#FFFFFFFFFFFFFFFD
(1790667810.903219) can0 004#8000800000000800
(1790667810.903250) can0 005#8000800000000800
(1790667810.903300) can0 006#8000800000000800
(1790667810.903301) can0 001#8000800000000800
(1790667810.903301) can0 002#8000800000000800
(1790667810.903326) can0 003#8000800000000800
(1790667810.903371) can1 005#FFFFFFFFFFFFFFFD
(1790667810.903452) can1 006#FFFFFFFFFFFFFFFD
(1790667810.903488) can1 014#04802E7FF7FE2F17
(1790667810.903529) can1 001#FFFFFFFFFFFFFFFD
(1790667810.903611) can1 002#FFFFFFFFFFFFFFFD
(1790667810.903701) can1 003#FFFFFFFFFFFFFFFD
(1790667810.903781) can1 004#8000800000000800
(1790667810.903862) can1 005#8000800000000800
(1790667810.903951) can1 006#8000800000000800
(1790667810.904038) can1 001#8000800000000800
(1790667810.904115) can1 002#8000800000000800
(1790667810.904198) can1 003#8000800000000800
(1790667810.904651) can0 011#017FA37FF7F7211E
(1790667810.904754) can0 011#017FA37FF7F2211E
(1790667810.904885) can0 012#0280F07FF7FC3120
(1790667810.904937) can1 011#017F707FF805231C
(1790667810.905004) can0 012#0280F07FF7F63120
(1790667810.905083) can1 011#017F707FF805231C
(1790667810.905121) can0 013#0380007FF7EC221B
(1790667810.905161) can1 012#027FC87FF803201C
(1790667810.905203) can0 004#8000800000000800
(1790667810.905204) can0 005#8000800000000800
(1790667810.905243) can0 006#8000800000000800
(1790667810.905244) can0 001#8000800000000800
(1790667810.905283) can0 013#0380007FF7F4221B
(1790667810.905284) can0 002#8000800000000800
(1790667810.905320) can0 003#8000800000000800
(1790667810.905365) can1 004#8000800000000800
(1790667810.905402) can1 013#037FE97FF8061F1A
(1790667810.905450) can1 005#8000800000000800
(1790667810.905549) can1 006#8000800000000800
(1790667810.905630) can1 001#8000800000000800
(1790667810.905713) can1 002#8000800000000800
(1790667810.905799) can1 003#8000800000000800
(1790667810.906095) can0 011#017FA37FF7F2211E
(1790667810.906228) can0 012#0280F07FF7F73120
(1790667810.906280) can1 011#017F707FF804231C
(1790667810.906332) can0 013#0380007FF7F9221B
(1790667810.906384) can1 012#027FC87FF7FC211C
(1790667810.906462) can0 014#047FC07FF8022E20
(1790667810.906514) can1 013#037FE97FF8061F1A
(1790667810.906592) can0 014#047FC07FF7FA2E20
(1790667810.906629) can1 013#037FE97FF8041F1A
(1790667810.906704) can0 014#047FC07FF7FC2E20
(1790667810.906754) can1 014#04802E7FF7FF2F17
(1790667810.906834) can0 015#05800D7FF7FE311F
(1790667810.906877) can1 014#04802E7FF7FD2F17
(1790667810.906938) can0 015#05800D7FF7FE311F
(1790667810.907004) can1 015#0580137FF7FE211D
(1790667810.907086) can0 015#05800D7FF7FE311F
(1790667810.907123) can1 015#0580137FF7FC211D
(1790667810.907173) can0 016#0680057FF8022A1C
(1790667810.907228) can1 015#0580137FF7FC211D
(1790667810.907267) can0 004#8000800000000800
(1790667810.907315) can0 005#8000800000000800
(1790667810.907316) can0 006#8000800000000800
(1790667810.907351) can0 001#8000800000000800
(1790667810.907351) can0 002#8000800000000800
(1790667810.907387) can0 003#8000800000000800
(1790667810.907433) can1 004#8000800000000800
(1790667810.907470) can1 016#067FCB7FF7FB221B
(1790667810.907520) can1 005#8000800000000800
(1790667810.907556) can1 006#8000800000000800
(1790667810.907635) can1 001#8000800000000800
(1790667810.907677) can1 002#8000800000000800
(1790667810.907757) can1 003#8000800000000800
(1790667810.908178) can0 011#017FA37FF7F0211E
(1790667810.908281) can0 012#0280F07FF7F93120
(1790667810.908331) can1 011#017F707FF802231C
(1790667810.908406) can0 013#0380007FF7F5221B
(1790667810.908527) can1 012#027FC87FF800211C
(1790667810.908532) can0 014#047FC07FF7FA2E20
(1790667810.908566) can1 013#037FE97FF8031F1A
(1790667810.908656) can0 015#05800D7FF804311F
(1790667810.908698) can1 014#04802E7FF7FA2F17
(1790667810.908783) can0 016#0680057FF8032A1C
(1790667810.908827) can1 015#0580137FF800211D
(1790667810.908886) can0 016#0680057FF8022A1C
(1790667810.908929) can1 016#067FCB7FF7FA221B
(1790667810.909025) can1 016#067FCB7FF7FC221B
(1790667810.909424) can0 004#8000800000000800
(1790667810.909425) can0 005#8000800000000800
(1790667810.909456) can0 006#8000800000000800
(1790667810.909457) can0 001#8000800000000800
(1790667810.909496) can0 002#8000800000000800
(1790667810.909546) can0 003#8000800000000800
(1790667810.909547) can1 004#8000800000000800
(1790667810.909547) can0 004#8000800000000800
(1790667810.909580) can0 005#8000800000000800
(1790667810.909580) can0 006#8000800000000800
(1790667810.909618) can0 001#8000800000000800
(1790667810.909618) can0 002#8000800000000800
(1790667810.909654) can0 003#8000800000000800
(1790667810.909704) can0 004#8000800000000800
(1790667810.909706) can0 005#8000800000000800
(1790667810.909737) can0 006#8000800000000800
(1790667810.909738) can0 001#8000800000000800
(1790667810.909777) can0 002#8000800000000800
(1790667810.909821) can0 003#8000800000000800
(1790667810.909820) can1 005#8000800000000800
(1790667810.909903) can1 006#8000800000000800
(1790667810.909983) can1 001#8000800000000800
(1790667810.910072) can1 002#8000800000000800
(1790667810.910153) can1 003#8000800000000800
(1790667810.910235) can1 004#8000800000000800
(1790667810.910328) can1 005#8000800000000800
(1790667810.910425) can1 006#8000800000000800
(1790667810.910507) can1 001#8000800000000800
(1790667810.910589) can1 002#8000800000000800
(1790667810.910676) can1 003#8000800000000800
(1790667810.910759) can1 004#8000800000000800
(1790667810.910838) can1 005#8000800000000800
(1790667810.910923) can1 006#8000800000000800
(1790667810.911005) can1 001#8000800000000800
(1790667810.911085) can1 002#8000800000000800
(1790667810.911170) can1 003#8000800000000800
(1790667810.911721) can0 011#017FA37FF7F1211E
(1790667810.911834) can0 011#017FA37FF7F5211E
(1790667810.911964) can0 011#017FA37FF7F5211E
(1790667810.912004) can1 011#017F707FF7FC231C
(1790667810.912086) can0 012#0280F07FF7FA3120
(1790667810.912129) can1 011#017F707FF7FC231C
(1790667810.912204) can0 012#0280F07FF7FB3120
(1790667810.912256) can1 011#017F707FF7F8231C
(1790667810.912308) can0 012#0280F07FF7FD3120
(1790667810.912360) can1 012#027FC87FF800211C
(1790667810.912438) can0 013#0380007FF7FC221B
(1790667810.912504) can1 012#027FC87FF800211C
(1790667810.912553) can0 013#0380007FF7FC221B
(1790667810.912605) can1 012#027FC8800803211C
(1790667810.912683) can0 013#0380007FF7FB221B
(1790667810.912727) can1 013#037FE97FF8041F1A
(1790667810.912808) can0 014#047FC07FF7F12E20
(1790667810.912852) can1 013#037FE97FF8011F1A
(1790667810.912912) can0 014#047FC07FF8072E20
(1790667810.912964) can1 013#037FE97FF8011F1A
(1790667810.913075) can0 014#047FC07FF8062E20
(1790667810.913099) can1 014#04802E7FF7F92F17
(1790667810.913147) can0 015#05800D7FF80B311F
(1790667810.913202) can1 014#04802E7FF7F72F17
(1790667810.913281) can0 015#05800D7FF809311F
(1790667810.913332) can1 015#0580137FF7FE211D
(1790667810.913410) can0 015#05800D7FF808311F
(1790667810.913454) can1 015#0580137FF7FE211D
(1790667810.913514) can0 016#0680057FF7FE2A1C
(1790667810.913566) can1 015#0580137FF803211D
(1790667810.913629) can0 016#0680057FF7FC2A1C
(1790667810.913679) can1 016#067FCB7FF7FF221B
(1790667810.913770) can0 016#0680057FF7FD2A1C
(1790667810.913808) can1 016#067FCB7FF7FF221B
(1790667810.913912) can1 016#067FCB7FF7FF221B
(1790667810.917680) can0 004#8000800000000800
(1790667810.917683) can0 005#8000800000000800
(1790667810.917716) can0 006#8000800000000800
(1790667810.917717) can0 001#8000800000000800
(1790667810.917759) can0 002#8000800000000800
(1790667810.917803) can0 003#8000800000000800
(1790667810.917846) can1 004#8000800000000800
(1790667810.917927) can1 005#8000800000000800
(1790667810.918006) can1 006#8000800000000800
(1790667810.918086) can1 001#8000800000000800
(1790667810.918173) can1 002#8000800000000800
(1790667810.918252) can1 003#8000800000000800
(1790667810.918479) can0 011#017FA37FF7ED211E
(1790667810.918608) can0 012#0280F07FF8023120
(1790667810.918686) can1 011#017F707FF7FE231C
(1790667810.918730) can0 013#0380007FF7FF221B
(1790667810.918782) can1 012#027FC87FF7FF211C
(1790667810.918834) can0 014#047FC07FF7FA2E20
(1790667810.918912) can1 013#037FE97FF7FC1F1A
(1790667810.918965) can0 015#05800D7FF80B311F
(1790667810.919025) can1 014#04802E7FF7F92F17
(1790667810.919101) can0 016#0680057FF8012A1C
(1790667810.919150) can1 015#0580137FF802211D
(1790667810.919280) can1 016#067FCB7FF7FC221B
(1790667810.925676) can0 004#8000800000000800
(1790667810.925678) can0 005#8000800000000800
(1790667810.925716) can0 006#8000800000000800
(1790667810.925716) can0 001#8000800000000800
(1790667810.925754) can0 002#8000800000000800
(1790667810.925793) can0 003#8000800000000800
(1790667810.925842) can1 004#8000800000000800
(1790667810.925930) can1 005#8000800000000800
(1790667810.926010) can1 006#8000800000000800
(1790667810.926091) can1 001#8000800000000800
(1790667810.926175) can1 002#8000800000000800
(1790667810.926254) can1 003#8000800000000800
(1790667810.926505) can0 011#017FA37FF7FA211E
(1790667810.926605) can0 012#0280F07FF8003120
(1790667810.926683) can1 011#017F707FF7FD231C
(1790667810.926732) can0 013#0380007FF7F2221B
(1790667810.926783) can1 012#027FC87FF803211C
(1790667810.926834) can0 014#047FC07FF8032E20
(1790667810.926912) can1 013#037FE97FF7FC1F1A
(1790667810.926964) can0 015#05800D7FF804311F
(1790667810.927025) can1 014#04802E7FF7FB2F17
(1790667810.927102) can0 016#0680057FF7F72A1C
(1790667810.927150) can1 015#0580137FF7FD211D
(1790667810.927281) can1 016#067FCB7FF7FC221B
(1790667810.933633) can0 004#8000800000000800
(1790667810.933671) can0 005#8000800000000800
(1790667810.933720) can0 006#8000800000000800
(1790667810.933720) can0 001#8000800000000800
(1790667810.933756) can0 002#8000800000000800
(1790667810.933757) can0 003#8000800000000800
(1790667810.933794) can1 004#8000800000000800
(1790667810.933877) can1 005#8000800000000800
(1790667810.933957) can1 006#8000800000000800
(1790667810.934046) can1 001#8000800000000800
(1790667810.934127) can1 002#8000800000000800
(1790667810.934205) can1 003#8000800000000800
(1790667810.934480) can0 011#017FA37FF7F3211E
(1790667810.934605) can0 012#0280F07FF7FB3120
(1790667810.934648) can1 011#017F707FF804231C
(1790667810.934727) can0 013#0380007FF817221B
(1790667810.934771) can1 012#027FC87FF7F3211C
(1790667810.934834) can0 014#047FC07FF7FC2E20
(1790667810.934885) can1 013#037FE97FF7FB1F1A
(1790667810.934960) can0 015#05800D7FF803311F
(1790667810.935003) can1 014#04802E7FF7FC2F17
(1790667810.935083) can0 016#0680057FF7FF2A1C
(1790667810.935127) can1 015#0580137FF7FF211D
(1790667810.935234) can1 016#067FCB7FF7FD221B
(1790667810.941609) can0 004#8000800000000800
(1790667810.941659) can0 005#8000800000000800
(1790667810.941659) can0 006#8000800000000800
(1790667810.941690) can0 001#8000800000000800
(1790667810.941691) can0 002#8000800000000800
(1790667810.941736) can0 003#8000800000000800
(1790667810.941737) can1 004#8000800000000800
(1790667810.941813) can1 005#8000800000000800
(1790667810.941895) can1 006#8000800000000800
(1790667810.941979) can1 001#8000800000000800
(1790667810.942062) can1 002#8000800000000800
(1790667810.942134) can1 003#8000800000000800
(1790667810.942481) can0 011#017FA37FF7F6211E
(1790667810.942577) can0 012#0280F07FF7F83120
(1790667810.942620) can1 011#017F707FF7FD231C
(1790667810.942708) can0 013#0380007FF80B221B
(1790667810.942750) can1 012#027FC87FF7FB211C
(1790667810.942808) can0 014#047FC07FF7FF2E20
(1790667810.942851) can1 013#037FE97FF7F71F1A
(1790667810.942938) can0 015#05800D7FF805311F
(1790667810.942982) can1 014#04802E7FF7FE2F17
(1790667810.943070) can0 016#0680057FF8002A1C
(1790667810.943113) can1 015#0580137FF803211D
(1790667810.943202) can1 016#067FCB7FF7FB221B
(1790667810.949676) can0 004#8000800000000800
(1790667810.949678) can0 005#8000800000000800
(1790667810.949716) can0 006#8000800000000800
(1790667810.949716) can0 001#8000800000000800
(1790667810.949756) can0 002#8000800000000800
(1790667810.949756) can0 003#8000800000000800
(1790667810.949795) can1 004#8000800000000800
(1790667810.949839) can1 005#8000800000000800
(1790667810.949923) can1 006#8000800000000800
(1790667810.950005) can1 001#8000800000000800
(1790667810.950085) can1 002#8000800000000800
(1790667810.950170) can1 003#8000800000000800
(1790667810.950527) can0 011#017FA37FF7FF211E
(1790667810.950606) can0 012#0280F07FF7FC3120
(1790667810.950649) can1 011#017F707FF7FB231C
(1790667810.950726) can0 013#0380007FF7F8221B
(1790667810.950762) can1 012#027FC87FF7F7211C
(1790667810.950835) can0 014#047FC07FF7FA2E20
(1790667810.950887) can1 013#037FE97FF7FA1F1A
(1790667810.950964) can0 015#05800D7FF802311F
(1790667810.951004) can1 014#04802E7FF7FE2F17
(1790667810.951089) can0 016#0680057FF7FF2A1C
(1790667810.951129) can1 015#0580137FF800211D
(1790667810.951231) can1 016#067FCB7FF801221B
(1790667810.957680) can0 004#8000800000000800
(1790667810.957684) can0 005#8000800000000800
(1790667810.957717) can0 006#8000800000000800
(1790667810.957717) can0 001#8000800000000800
(1790667810.957754) can0 002#8000800000000800
(1790667810.957794) can0 003#8000800000000800
(1790667810.957843) can1 004#8000800000000800
(1790667810.957929) can1 005#8000800000000800
(1790667810.958012) can1 006#8000800000000800
(1790667810.958090) can1 001#8000800000000800
(1790667810.958171) can1 002#8000800000000800
(1790667810.958255) can1 003#8000800000000800
(1790667810.958484) can0 011#017FA3800807211E
(1790667810.958629) can0 012#0280F07FF8133120
(1790667810.958679) can1 011#017F707FF804231C
(1790667810.958726) can0 013#0380007FF7F5221B
(1790667810.958783) can1 012#027FC87FF80A211C
(1790667810.958835) can0 014#047FC07FF7F92E20
(1790667810.958913) can1 013#037FE97FF7FE1F1A
(1790667810.958964) can0 015#05800D7FF801311F
(1790667810.959026) can1 014#04802E7FF7FD2F17
(1790667810.959107) can0 016#0680057FF7F52A1C
(1790667810.959150) can1 015#0580137FF806211D
(1790667810.959281) can1 016#067FCB7FF803221B
(1790667810.965677) can0 004#8000800000000800
(1790667810.965679) can0 005#8000800000000800
(1790667810.965716) can0 006#8000800000000800
(1790667810.965716) can0 001#8000800000000800
(1790667810.965790) can0 002#8000800000000800
(1790667810.965791) can0 003#8000800000000800
(1790667810.965796) can1 004#8000800000000800
(1790667810.965839) can1 005#8000800000000800
(1790667810.965923) can1 006#8000800000000800
(1790667810.966004) can1 001#8000800000000800
(1790667810.966084) can1 002#8000800000000800
(1790667810.966171) can1 003#8000800000000800
(1790667810.966527) can0 011#017FA3800800211E
(1790667810.966605) can0 012#0280F07FF8003120
(1790667810.966648) can1 011#017F707FF803231C
(1790667810.966725) can0 013#0380007FF806221B
(1790667810.966762) can1 012#027FC87FF7FE211C
(1790667810.966861) can0 014#047FC07FF8012E20
(1790667810.966904) can1 013#037FE97FF7FF1F1A
(1790667810.966964) can0 015#05800D7FF804311F
(1790667810.967004) can1 014#04802E7FF7FE2F17
(1790667810.967095) can0 016#0680057FF7FD2A1C
(1790667810.967131) can1 015#0580137FF7FF211D
(1790667810.967230) can1 016#067FCB7FF7FD221B
(1790667810.973733) can0 004#8000800000000800
(1790667810.973762) can0 005#8000800000000800
(1790667810.973813) can0 006#8000800000000800
(1790667810.973814) can0 001#8000800000000800
(1790667810.973847) can0 002#8000800000000800
(1790667810.973848) can0 003#8000800000000800
(1790667810.973885) can1 004#8000800000000800
(1790667810.973965) can1 005#8000800000000800
(1790667810.974048) can1 006#8000800000000800
(1790667810.974129) can1 001#8000800000000800
(1790667810.974208) can1 002#8000800000000800
(1790667810.974296) can1 003#8000800000000800
(1790667810.974565) can0 011#017FA37FF7F5211E
(1790667810.974703) can0 012#0280F07FF8003120
(1790667810.974748) can1 011#017F707FF7FB231C
(1790667810.974810) can0 013#0380007FF7F9221B
(1790667810.974861) can1 012#027FC87FF7F1211C
(1790667810.974939) can0 014#047FC07FF7FA2E20
(1790667810.974982) can1 013#037FE97FF7FE1F1A
(1790667810.975072) can0 015#05800D7FF802311F
(1790667810.975115) can1 014#04802E7FF8062F17
(1790667810.975179) can0 016#0680057FF7FF2A1C
(1790667810.975220) can1 015#0580137FF7F9211D
(1790667810.975334) can1 016#067FCB7FF7FC221B
(1790667810.981683) can0 004#8000800000000800
(1790667810.981688) can0 005#8000800000000800
(1790667810.981712) can0 006#8000800000000800
(1790667810.981763) can0 001#8000800000000800
(1790667810.981763) can0 002#8000800000000800
(1790667810.981792) can0 003#8000800000000800
(1790667810.981840) can1 004#8000800000000800
(1790667810.981925) can1 005#8000800000000800
(1790667810.982007) can1 006#8000800000000800
(1790667810.982085) can1 001#8000800000000800
(1790667810.982170) can1 002#8000800000000800
(1790667810.982253) can1 003#8000800000000800
(1790667810.982533) can0 011#017FA37FF7F1211E
(1790667810.982636) can0 012#0280F07FF8093120
(1790667810.982686) can1 011#017F707FF7FD231C
(1790667810.982758) can0 013#0380007FF7F9221B
(1790667810.982809) can1 012#027FC87FE7F6211C
(1790667810.982887) can0 014#047FC07FF8042E20
(1790667810.982930) can1 013#037FE97FF7FF1F1A
(1790667810.983006) can0 015#05800D7FF7FF311F
(1790667810.983088) can1 014#04802E7FF7FF2F17
(1790667810.983130) can0 016#0680057FF7FD2A1C
(1790667810.983165) can1 015#0580137FF804211D
(1790667810.983283) can1 016#067FCB7FF7FD221B
(1790667810.989679) can0 004#8000800000000800
(1790667810.989716) can0 005#8000800000000800
(1790667810.989717) can0 006#8000800000000800
(1790667810.989760) can0 001#8000800000000800
(1790667810.989792) can0 002#8000800000000800
(1790667810.989836) can0 003#8000800000000800
(1790667810.989880) can1 004#8000800000000800
(1790667810.989954) can1 005#8000800000000800
(1790667810.990051) can1 006#8000800000000800
(1790667810.990125) can1 001#8000800000000800
(1790667810.990208) can1 002#8000800000000800
(1790667810.990298) can1 003#8000800000000800
(1790667810.990513) can0 011#017FA37FF7F9211E
(1790667810.990629) can0 012#0280F07FF8043120
(1790667810.990705) can1 011#017F707FF7FF231C
(1790667810.990754) can0 013#0380007FF805221B
(1790667810.990835) can1 012#027FC87FF7FF211C
(1790667810.990887) can0 014#047FC07FF8032E20
(1790667810.990938) can1 013#037FE97FF7F81F1A
(1790667810.991004) can0 015#05800D7FF801311F
(1790667810.991084) can1 014#04802E7FF8022F17
(1790667810.991129) can0 016#0680057FF7FF2A1C
(1790667810.991179) can1 015#0580137FF7FB211D
(1790667810.991309) can1 016#067FCB7FF7FD221B
(1790667810.997682) can0 004#8000800000000800
(1790667810.997686) can0 005#8000800000000800
(1790667810.997717) can0 006#8000800000000800
(1790667810.997717) can0 001#8000800000000800
(1790667810.997754) can0 002#8000800000000800
(1790667810.997794) can0 003#8000800000000800
(1790667810.997843) can1 004#8000800000000800
(1790667810.997929) can1 005#8000800000000800
(1790667810.998010) can1 006#8000800000000800
(1790667810.998091) can1 001#8000800000000800
(1790667810.998171) can1 002#8000800000000800
(1790667810.998256) can1 003#8000800000000800
(1790667810.998486) can0 011#017FA37FF7EB211E
(1790667810.998631) can0 012#0280F07FF8023120
(1790667810.998679) can1 011#017F707FF800231C
(1790667810.998727) can0 013#0380007FF802221B
(1790667810.998785) can1 012#027FC87FF7F0211C
(1790667810.998836) can0 014#047FC07FF7FF2E20
(1790667810.998913) can1 013#037FE97FF7F71F1A
(1790667810.998965) can0 015#05800D7FF801311F
(1790667810.999026) can1 014#04802E7FF7FF2F17
(1790667810.999108) can0 016#0680057FF80A2A1C
(1790667810.999151) can1 015#0580137FF803211D
(1790667810.999281) can1 016#067FCB7FF7FC221B
(1790667811.005616) can0 004#8000800000000800
(1790667811.005656) can0 005#8000800000000800
(1790667811.005656) can0 006#8000800000000800
(1790667811.005702) can0 001#8000800000000800
(1790667811.005703) can0 002#8000800000000800
(1790667811.005738) can0 003#8000800000000800
(1790667811.005740) can1 004#8000800000000800
(1790667811.005815) can1 005#8000800000000800
(1790667811.005898) can1 006#8000800000000800
(1790667811.005979) can1 001#8000800000000800
(1790667811.006062) can1 002#8000800000000800
(1790667811.006134) can1 003#8000800000000800
(1790667811.006487) can0 011#017FA380080D211E
(1790667811.006578) can0 012#0280F07FF8043120
(1790667811.006628) can1 011#017F707FF7F7231C
(1790667811.006708) can0 013#0380007FF7FA221B
(1790667811.006751) can1 012#027FC87FF809201C
(1790667811.006835) can0 014#047FC08008102E20
(1790667811.006878) can1 013#037FE97FF7FC1F1A
(1790667811.006939) can0 015#05800D7FF810311F
(1790667811.006983) can1 014#04802E7FF8002F17
(1790667811.007071) can0 016#0680057FF8072A1C
(1790667811.007114) can1 015#0580137FF7FC211D
(1790667811.007203) can1 016#067FCB7FF7FE221B
(1790667811.013689) can0 004#8000800000000800
(1790667811.013693) can0 005#8000800000000800
(1790667811.013724) can0 006#8000800000000800
(1790667811.013724) can0 001#8000800000000800
(1790667811.013752) can0 002#8000800000000800
(1790667811.013793) can0 003#8000800000000800
(1790667811.013841) can1 004#8000800000000800
(1790667811.013928) can1 005#8000800000000800
(1790667811.014007) can1 006#8000800000000800
(1790667811.014087) can1 001#8000800000000800
(1790667811.014171) can1 002#8000800000000800
(1790667811.014253) can1 003#8000800000000800
(1790667811.014505) can0 011#017FA37FF7EA211E
(1790667811.014635) can0 012#0280F07FF8033120
(1790667811.014687) can1 011#017F707FF7FE231C
(1790667811.014755) can0 013#0380007FF7F3221B
(1790667811.014809) can1 012#027FC87FF800201C
(1790667811.014887) can0 014#047FC07FF7FE2E20
(1790667811.014930) can1 013#037FE97FF8001F1A
(1790667811.015004) can0 015#05800D7FF800311F
(1790667811.015084) can1 014#04802E7FF8052F17
(1790667811.015130) can0 016#0680057FF8032A1C
(1790667811.015172) can1 015#0580137FF7FC211D
(1790667811.015283) can1 016#067FCB7FF7FC221B
(1790667811.021688) can0 004#8000800000000800
(1790667811.021692) can0 005#8000800000000800
(1790667811.021713) can0 006#8000800000000800
(1790667811.021762) can0 001#8000800000000800
(1790667811.021763) can0 002#8000800000000800
(1790667811.021793) can0 003#8000800000000800
(1790667811.021840) can1 004#8000800000000800
(1790667811.021926) can1 005#8000800000000800
(1790667811.022007) can1 006#8000800000000800
(1790667811.022085) can1 001#8000800000000800
(1790667811.022171) can1 002#8000800000000800
(1790667811.022253) can1 003#8000800000000800
(1790667811.022505) can0 011#017FA37FF7F5211E
(1790667811.022635) can0 012#0280F07FF80A3120
(1790667811.022687) can1 011#017F707FF80A231C
(1790667811.022755) can0 013#0380007FF7FC221B
(1790667811.022809) can1 012#027FC87FF7FC211C
(1790667811.022887) can0 014#047FC07FF8072E20
(1790667811.022930) can1 013#037FE97FF8001F1A
(1790667811.023006) can0 015#05800D7FF801311F
(1790667811.023054) can1 014#04802E7FF7FE2F17
(1790667811.023132) can0 016#0680057FF7FB2A1C
(1790667811.023173) can1 015#0580137FF7FB211D
(1790667811.023284) can1 016#067FCB7FF7FE221B
(1790667811.029621) can0 004#8000800000000800
(1790667811.029656) can0 005#8000800000000800
(1790667811.029657) can0 006#8000800000000800
(1790667811.029699) can0 001#8000800000000800
(1790667811.029737) can0 002#8000800000000800
(1790667811.029737) can0 003#8000800000000800
(1790667811.029780) can1 004#8000800000000800
(1790667811.029864) can1 005#8000800000000800
(1790667811.029951) can1 006#8000800000000800
(1790667811.030038) can1 001#8000800000000800
(1790667811.030117) can1 002#8000800000000800
(1790667811.030199) can1 003#8000800000000800
(1790667811.030470) can0 011#017FA37FF7F4211E
(1790667811.030579) can0 012#0280F07FF8063120
(1790667811.030631) can1 011#017F707FF80A231C
(1790667811.030709) can0 013#0380007FF7F8221B
(1790667811.030753) can1 012#027FC87FF7FB211C
(1790667811.030810) can0 014#047FC07FF7F92E20
(1790667811.030862) can1 013#037FE97FF8011F1A
(1790667811.030940) can0 015#05800D7FF7FC311F
(1790667811.031005) can1 014#04802E7FF8092F17
(1790667811.031089) can0 016#0680057FF7FF2A1C
(1790667811.031090) can1 015#0580137FF801211D
(1790667811.031230) can1 016#067FCB7FF801221B
(1790667811.037681) can0 004#8000800000000800
(1790667811.037717) can0 005#8000800000000800
(1790667811.037718) can0 006#8000800000000800
(1790667811.037756) can0 001#8000800000000800
(1790667811.037756) can0 002#8000800000000800
(1790667811.037793) can0 003#8000800000000800
(1790667811.037841) can1 004#8000800000000800
(1790667811.037926) can1 005#8000800000000800
(1790667811.038007) can1 006#8000800000000800
(1790667811.038087) can1 001#8000800000000800
(1790667811.038170) can1 002#8000800000000800
(1790667811.038254) can1 003#8000800000000800
(1790667811.038531) can0 011#017FA37FF7EA211E
(1790667811.038631) can0 012#0280F07FF7FE3120
(1790667811.038681) can1 011#017F707FF805231C
(1790667811.038755) can0 013#0380007FF809221B
(1790667811.038809) can1 012#027FC87FF801211C
(1790667811.038886) can0 014#047FC07FF7F62E20
(1790667811.038929) can1 013#037FE97FF8041F1A
(1790667811.038986) can0 015#05800D7FF803311F
(1790667811.039031) can1 014#04802E7FF7FF2F17
(1790667811.039130) can0 016#0680057FF7FF2A1C
(1790667811.039166) can1 015#0580137FF802211D
(1790667811.039281) can1 016#067FCB7FF801221B
(1790667811.045650) can0 004#8000800000000800
(1790667811.045674) can0 005#8000800000000800
(1790667811.045725) can0 006#8000800000000800
(1790667811.045726) can0 001#8000800000000800
(1790667811.045758) can0 002#8000800000000800
(1790667811.045759) can0 003#8000800000000800
(1790667811.045800) can1 004#8000800000000800
(1790667811.045841) can1 005#8000800000000800
(1790667811.045923) can1 006#8000800000000800
(1790667811.046005) can1 001#8000800000000800
(1790667811.046086) can1 002#8000800000000800
(1790667811.046169) can1 003#8000800000000800
(1790667811.046508) can0 011#017FA37FF7FC211E
(1790667811.046606) can0 012#0280F07FF7FF3120
(1790667811.046658) can1 011#017F707FF7FC231C
(1790667811.046726) can0 013#0380007FF80C221B
(1790667811.046762) can1 012#027FC87FF7F9211C
(1790667811.046835) can0 014#047FC07FF7FF2E20
(1790667811.046887) can1 013#037FE97FF8051F1A
(1790667811.046965) can0 015#05800D7FF801311F
(1790667811.047005) can1 014#04802E7FF7FE2F17
(1790667811.047090) can0 016#0680057FF8012A1C
(1790667811.047165) can1 015#0580137FF7FB211D
(1790667811.047233) can1 016#067FCB7FF7FE221B
(1790667811.053650) can0 004#8000800000000800
(1790667811.053670) can0 005#8000800000000800
(1790667811.053713) can0 006#8000800000000800
(1790667811.053714) can0 001#8000800000000800
(1790667811.053749) can0 002#8000800000000800
(1790667811.053801) can0 003#8000800000000800
(1790667811.053801) can1 004#8000800000000800
(1790667811.053876) can1 005#8000800000000800
(1790667811.053955) can1 006#8000800000000800
(1790667811.054054) can1 001#8000800000000800
(1790667811.054136) can1 002#8000800000000800
(1790667811.054177) can1 003#8000800000000800
(1790667811.054469) can0 011#017FA37FF7FD211E
(1790667811.054604) can0 012#0280F07FF7FF3120
(1790667811.054682) can1 011#017F707FF803231C
(1790667811.054707) can0 013#0380007FF7FB221B
(1790667811.054755) can1 012#027FC87FF7FC211C
(1790667811.054835) can0 014#047FC07FF8032E20
(1790667811.054886) can1 013#037FE97FF7FB1F1A
(1790667811.054963) can0 015#05800D7FF7FE311F
(1790667811.055007) can1 014#04802E7FF7FC2F17
(1790667811.055085) can0 016#0680057FF7FD2A1C
(1790667811.055131) can1 015#0580137FF808211D
(1790667811.055233) can1 016#067FCB7FF800221B
(1790667811.061686) can0 004#8000800000000800
(1790667811.061689) can0 005#8000800000000800
(1790667811.061724) can0 006#8000800000000800
(1790667811.061724) can0 001#8000800000000800
(1790667811.061752) can0 002#8000800000000800
(1790667811.061793) can0 003#8000800000000800
(1790667811.061840) can1 004#8000800000000800
(1790667811.061925) can1 005#8000800000000800
(1790667811.062009) can1 006#8000800000000800
(1790667811.062089) can1 001#8000800000000800
(1790667811.062172) can1 002#8000800000000800
(1790667811.062254) can1 003#8000800000000800
(1790667811.062506) can0 011#017FA37FF80A211E
(1790667811.062636) can0 012#0280F07FF8023120
(1790667811.062687) can1 011#017F707FF7FE231C
(1790667811.062755) can0 013#0380007FF818221B
(1790667811.062810) can1 012#027FC87FF809211C
(1790667811.062887) can0 014#047FC07FF7F72E20
(1790667811.062931) can1 013#037FE97FF8011F1A
(1790667811.063005) can0 015#05800D7FF800311F
(1790667811.063052) can1 014#04802E7FF8002F17
(1790667811.063130) can0 016#0680057FF7FE2A1C
(1790667811.063172) can1 015#0580137FF800211D
(1790667811.063284) can1 016#067FCB7FF7FE221B
(1790667811.069681) can0 004#8000800000000800
(1790667811.069685) can0 005#8000800000000800
(1790667811.069718) can0 006#8000800000000800
(1790667811.069718) can0 001#8000800000000800
(1790667811.069758) can0 002#8000800000000800
(1790667811.069758) can0 003#8000800000000800
(1790667811.069799) can1 004#8000800000000800
(1790667811.069841) can1 005#8000800000000800
(1790667811.069924) can1 006#8000800000000800
(1790667811.070005) can1 001#8000800000000800
(1790667811.070085) can1 002#8000800000000800
(1790667811.070168) can1 003#8000800000000800
(1790667811.070527) can0 011#017FA37FF7FD211E
(1790667811.070606) can0 012#0280F07FF8023120
(1790667811.070658) can1 011#017F707FF804231C
(1790667811.070726) can0 013#0380007FF7FE221B
(1790667811.070763) can1 012#027FC87FF800211C
(1790667811.070835) can0 014#047FC07FF8002E20
(1790667811.070887) can1 013#037FE97FF8041F1A
(1790667811.070965) can0 015#05800D7FF805311F
(1790667811.071005) can1 014#04802E7FF8032F17
(1790667811.071095) can0 016#0680057FF8042A1C
(1790667811.071131) can1 015#0580137FF7F2211D
(1790667811.071231) can1 016#067FCB7FF7FD221B
(1790667811.077674) can0 004#8000800000000800
(1790667811.077678) can0 005#8000800000000800
(1790667811.077706) can0 006#8000800000000800
(1790667811.077706) can0 001#8000800000000800
(1790667811.077747) can0 002#8000800000000800
(1790667811.077787) can0 003#8000800000000800
(1790667811.077830) can1 004#8000800000000800
(1790667811.077906) can1 005#8000800000000800
(1790667811.077988) can1 006#8000800000000800
(1790667811.078073) can1 001#8000800000000800
(1790667811.078154) can1 002#8000800000000800
(1790667811.078233) can1 003#8000800000000800
(1790667811.078483) can0 011#017FA37FF80B211E
(1790667811.078582) can0 012#0280F07FF8003120
(1790667811.078632) can1 011#017F707FF7F9231C
(1790667811.078707) can0 013#0380007FF800221B
(1790667811.078756) can1 012#027FC87FF7F9211C
(1790667811.078836) can0 014#047FC07FF8072E20
(1790667811.078887) can1 013#037FE97FF8001F1A
(1790667811.078966) can0 015#05800D7FF802311F
(1790667811.079005) can1 014#04802E7FF7FC2F17
(1790667811.079085) can0 016#0680057FF8032A1C
(1790667811.079130) can1 015#0580137FF7F9211D
(1790667811.079231) can1 016#067FCB7FF7FD221B
(1790667811.085681) can0 004#8000800000000800
(1790667811.085684) can0 005#8000800000000800
(1790667811.085717) can0 006#8000800000000800
(1790667811.085718) can0 001#8000800000000800
(1790667811.085755) can0 002#8000800000000800
(1790667811.085794) can0 003#8000800000000800
(1790667811.085845) can1 004#8000800000000800
(1790667811.085930) can1 005#8000800000000800
(1790667811.086010) can1 006#8000800000000800
(1790667811.086090) can1 001#8000800000000800
(1790667811.086172) can1 002#8000800000000800
(1790667811.086253) can1 003#8000800000000800
(1790667811.086480) can0 011#017FA37FF7F7211E
(1790667811.086610) can0 012#0280F07FF7FC3120
(1790667811.086687) can1 011#017F707FF7FE231C
(1790667811.086732) can0 013#0380007FF7EE221B
(1790667811.086785) can1 012#027FC87FF7F9211C
(1790667811.086838) can0 014#047FC07FF8002E20
(1790667811.086915) can1 013#037FE97FF7FE1F1A
(1790667811.086966) can0 015#05800D7FF806311F
(1790667811.087027) can1 014#04802E7FF8012F17
(1790667811.087103) can0 016#0680057FF7F02A1C
(1790667811.087152) can1 015#0580137FF802211D
(1790667811.087282) can1 016#067FCB7FF800221B
(1790667811.093699) can0 004#8000800000000800
(1790667811.093702) can0 005#8000800000000800
(1790667811.093736) can0 006#8000800000000800
(1790667811.093736) can0 001#8000800000000800
(1790667811.093777) can0 002#8000800000000800
(1790667811.093815) can0 003#8000800000000800
(1790667811.093860) can1 004#8000800000000800
(1790667811.093935) can1 005#8000800000000800
(1790667811.094021) can1 006#8000800000000800
(1790667811.094095) can1 001#8000800000000800
(1790667811.094175) can1 002#8000800000000800
(1790667811.094257) can1 003#8000800000000800
(1790667811.094506) can0 011#017FA37FF7F1211E
(1790667811.094633) can0 012#0280F07FF7F93120
(1790667811.094685) can1 011#017F707FF7F9231C
(1790667811.094730) can0 013#038000800804221B
(1790667811.094784) can1 012#027FC87FF7F6211C
(1790667811.094861) can0 014#047FC07FF8122E20
(1790667811.094913) can1 013#037FE97FF7FC1F1A
(1790667811.095005) can0 015#05800D7FF808311F
(1790667811.095053) can1 014#04802E7FF8012F17
(1790667811.095095) can0 016#0680057FF7F92A1C
(1790667811.095152) can1 015#0580137FF7FA211D
(1790667811.095281) can1 016#067FCB7FF7FD221B
(1790667811.101685) can0 004#8000800000000800
(1790667811.101719) can0 005#8000800000000800
(1790667811.101719) can0 006#8000800000000800
(1790667811.101756) can0 001#8000800000000800
(1790667811.101757) can0 002#8000800000000800
(1790667811.101794) can0 003#8000800000000800
(1790667811.101843) can1 004#8000800000000800
(1790667811.101928) can1 005#8000800000000800
(1790667811.102012) can1 006#8000800000000800
(1790667811.102087) can1 001#8000800000000800
(1790667811.102170) can1 002#8000800000000800
(1790667811.102254) can1 003#8000800000000800
(1790667811.102534) can0 011#017FA37FF7F4211E
(1790667811.102636) can0 012#0280F07FF80A3120
(1790667811.102688) can1 011#017F707FF7FF231C
(1790667811.102756) can0 013#0380007FF7FF221B
(1790667811.102810) can1 012#027FC87FF7F8211C
(1790667811.102888) can0 014#047FC08008102E20
(1790667811.102931) can1 013#037FE97FF8051F1A
(1790667811.103006) can0 015#05800D7FF7FF311F
(1790667811.103044) can1 014#04802E7FF8012F17
(1790667811.103131) can0 016#0680057FF8022A1C
(1790667811.103167) can1 015#0580137FF800211D
(1790667811.103285) can1 016#067FCB7FF7FB221B
(1790667811.109674) can0 004#8000800000000800
(1790667811.109709) can0 005#8000800000000800
(1790667811.109749) can0 006#8000800000000800
(1790667811.109791) can0 001#8000800000000800
(1790667811.109792) can0 002#8000800000000800
(1790667811.109835) can0 003#8000800000000800
(1790667811.109876) can1 004#8000800000000800
(1790667811.109955) can1 005#8000800000000800
(1790667811.110052) can1 006#8000800000000800
(1790667811.110125) can1 001#8000800000000800
(1790667811.110209) can1 002#8000800000000800
(1790667811.110299) can1 003#8000800000000800
(1790667811.110514) can0 011#017FA37FF7FC211E
(1790667811.110630) can0 012#0280F07FF8033120
(1790667811.110706) can1 011#017F707FF7F5231C
(1790667811.110756) can0 013#0380007FF7F0221B
(1790667811.110836) can1 012#027FC87FF7FB211C
(1790667811.110888) can0 014#047FC07FF8032E20
(1790667811.110940) can1 013#037FE97FF7FD1F1A
(1790667811.111005) can0 015#05800D7FF802311F
(1790667811.111086) can1 014#04802E7FF7FF2F17
(1790667811.111130) can0 016#0680057FF7FE2A1C
(1790667811.111180) can1 015#0580137FF801211D
(1790667811.111310) can1 016#067FCB7FF7FE221B
(1790667811.117661) can0 004#8000800000000800
(1790667811.117693) can0 005#8000800000000800
(1790667811.117693) can0 006#8000800000000800
(1790667811.117733) can0 001#8000800000000800
(1790667811.117734) can0 002#8000800000000800
(1790667811.117776) can0 003#8000800000000800
(1790667811.117821) can1 004#8000800000000800
(1790667811.117900) can1 005#8000800000000800
(1790667811.117982) can1 006#8000800000000800
(1790667811.118065) can1 001#8000800000000800
(1790667811.118147) can1 002#8000800000000800
(1790667811.118221) can1 003#8000800000000800
(1790667811.118506) can0 011#017FA37FF7F5211E
(1790667811.118607) can0 012#0280F07FF7FF3120
(1790667811.118650) can1 011#017F707FF7F9231C
(1790667811.118726) can0 013#0380007FF7FF221B
(1790667811.118762) can1 012#027FC87FF7FD201C
(1790667811.118862) can0 014#047FC08007FC2E20
(1790667811.118904) can1 013#037FE97FF7F81F1A
(1790667811.118965) can0 015#05800D7FF806311F
(1790667811.119005) can1 014#04802E7FF7F92F17
(1790667811.119089) can0 016#0680057FF7F82A1C
(1790667811.119131) can1 015#0580137FF7FB211D
(1790667811.119227) can1 016#067FCB7FF7FD221B
(1790667811.125683) can0 004#8000800000000800
(1790667811.125686) can0 005#8000800000000800
(1790667811.125713) can0 006#8000800000000800
(1790667811.125758) can0 001#8000800000000800
(1790667811.125758) can0 002#8000800000000800
(1790667811.125793) can0 003#8000800000000800
(1790667811.125838) can1 004#8000800000000800
(1790667811.125927) can1 005#8000800000000800
(1790667811.126009) can1 006#8000800000000800
(1790667811.126087) can1 001#8000800000000800
(1790667811.126171) can1 002#8000800000000800
(1790667811.126255) can1 003#8000800000000800
(1790667811.126528) can0 011#017FA37FF7F1211E
(1790667811.126631) can0 012#0280F07FF7FC3120
(1790667811.126683) can1 011#017F707FF7FC231C
(1790667811.126756) can0 013#0380007FF7FD221B
(1790667811.126810) can1 012#027FC87FF7F9211C
(1790667811.126888) can0 014#047FC07FF80E2E20
(1790667811.126929) can1 013#037FE97FF8041F1A
(1790667811.127007) can0 015#05800D7FF808311F
(1790667811.127046) can1 014#04802E7FF7FD2F17
(1790667811.127131) can0 016#0680057FF7FF2A1C
(1790667811.127167) can1 015#0580137FF7FC211D
(1790667811.127285) can1 016#067FCB7FF7FD221B
(1790667811.133638) can0 004#8000800000000800
(1790667811.133673) can0 005#8000800000000800
(1790667811.133715) can0 006#8000800000000800
(1790667811.133716) can0 001#8000800000000800
(1790667811.133759) can0 002#8000800000000800
(1790667811.133759) can0 003#8000800000000800
(1790667811.133797) can1 004#8000800000000800
(1790667811.133879) can1 005#8000800000000800
(1790667811.133958) can1 006#8000800000000800
(1790667811.134058) can1 001#8000800000000800
(1790667811.134145) can1 002#8000800000000800
(1790667811.134228) can1 003#8000800000000800
(1790667811.134481) can0 011#017FA37FF7F0211E
(1790667811.134610) can0 012#0280F07FF7FD3120
(1790667811.134654) can1 011#017F707FF7FC231C
(1790667811.134730) can0 013#0380007FF80B221B
(1790667811.134773) can1 012#027FC87FF807211C
(1790667811.134836) can0 014#047FC07FF7F62E20
(1790667811.134888) can1 013#037FE97FF8031F1A
(1790667811.134966) can0 015#05800D7FF805311F
(1790667811.135005) can1 014#04802E7FF7FF2F17
(1790667811.135087) can0 016#0680057FF8062A1C
(1790667811.135131) can1 015#0580137FF7FF211D
(1790667811.135231) can1 016#067FCB7FF801221B
(1790667811.141679) can0 004#8000800000000800
(1790667811.141680) can0 005#8000800000000800
(1790667811.141718) can0 006#8000800000000800
(1790667811.141719) can0 001#8000800000000800
(1790667811.141766) can0 002#8000800000000800
(1790667811.141806) can0 003#8000800000000800
(1790667811.141846) can1 004#8000800000000800
(1790667811.141926) can1 005#8000800000000800
(1790667811.142008) can1 006#8000800000000800
(1790667811.142086) can1 001#8000800000000800
(1790667811.142170) can1 002#8000800000000800
(1790667811.142254) can1 003#8000800000000800
(1790667811.142480) can0 011#017FA37FF7F4211E
(1790667811.142610) can0 012#0280F07FF80C3120
(1790667811.142688) can1 011#017F707FF804231C
(1790667811.142732) can0 013#0380007FF7FF221B
(1790667811.142784) can1 012#027FC87FE7FB211C
(1790667811.142836) can0 014#047FC07FF8112E20
(1790667811.142912) can1 013#037FE97FF7FD1F1A
(1790667811.142962) can0 015#05800D7FF7FF311F
(1790667811.143031) can1 014#04802E7FF8012F17
(1790667811.143086) can0 016#0680057FF7FF2A1C
(1790667811.143162) can1 015#0580137FF7FF211D
(1790667811.143262) can1 016#067FCB7FF7FE221B
(1790667811.149613) can0 004#8000800000000800
(1790667811.149650) can0 005#8000800000000800
(1790667811.149694) can0 006#8000800000000800
(1790667811.149694) can0 001#8000800000000800
(1790667811.149736) can0 002#8000800000000800
(1790667811.149736) can0 003#8000800000000800
(1790667811.149773) can1 004#8000800000000800
(1790667811.149817) can1 005#8000800000000800
(1790667811.149897) can1 006#8000800000000800
(1790667811.149980) can1 001#8000800000000800
(1790667811.150062) can1 002#8000800000000800
(1790667811.150134) can1 003#8000800000000800
(1790667811.150541) can0 011#017FA37FF803211E
(1790667811.150581) can0 012#0280F07FF8063120
(1790667811.150631) can1 011#017F707FF802231C
(1790667811.150710) can0 013#0380007FF7FD221B
(1790667811.150753) can1 012#027FC87FF7FF211C
(1790667811.150837) can0 014#047FC07FF8182E20
(1790667811.150881) can1 013#037FE97FF80B1F1A
(1790667811.150940) can0 015#05800D7FF80A311F
(1790667811.151007) can1 014#04802E7FF8022F17
(1790667811.151090) can0 016#0680057FF7FC2A1C
(1790667811.151092) can1 015#0580137FF7FE211D
(1790667811.151231) can1 016#067FCB7FF802221B
(1790667811.157666) can0 004#8000800000000800
(1790667811.157671) can0 005#8000800000000800
(1790667811.157703) can0 006#8000800000000800
(1790667811.157703) can0 001#8000800000000800
(1790667811.157746) can0 002#8000800000000800
(1790667811.157783) can0 003#8000800000000800
(1790667811.157827) can1 004#8000800000000800
(1790667811.157905) can1 005#8000800000000800
(1790667811.157985) can1 006#8000800000000800
(1790667811.158073) can1 001#8000800000000800
(1790667811.158156) can1 002#8000800000000800
(1790667811.158234) can1 003#8000800000000800
(1790667811.158483) can0 011#017FA37FF7F3211E
(1790667811.158586) can0 012#0280F07FF7F83120
(1790667811.158637) can1 011#017F707FF80C231C
(1790667811.158710) can0 013#0380007FF7F6221B
(1790667811.158756) can1 012#027FC87FF7F8211C
(1790667811.158836) can0 014#047FC07FF8072E20
(1790667811.158888) can1 013#037FE97FF8041F1A
(1790667811.158940) can0 015#05800D7FF803311F
(1790667811.159006) can1 014#04802E7FF8052F17
(1790667811.159087) can0 016#0680057FF7FC2A1C
(1790667811.159132) can1 015#0580137FF7FD211D
(1790667811.159232) can1 016#067FCB7FF800221B
(1790667811.165674) can0 004#8000800000000800
(1790667811.165709) can0 005#8000800000000800
(1790667811.165749) can0 006#8000800000000800
(1790667811.165791) can0 001#8000800000000800
(1790667811.165792) can0 002#8000800000000800
(1790667811.165837) can0 003#8000800000000800
(1790667811.165875) can1 004#8000800000000800
(1790667811.165954) can1 005#8000800000000800
(1790667811.166052) can1 006#8000800000000800
(1790667811.166138) can1 001#8000800000000800
(1790667811.166221) can1 002#8000800000000800
(1790667811.166293) can1 003#8000800000000800
(1790667811.166532) can0 011#017FA37FF7F2211E
(1790667811.166636) can0 012#0280F07FF80A3120
(1790667811.166709) can1 011#017F707FF80C231C
(1790667811.166756) can0 013#0380007FF803221B
(1790667811.166836) can1 012#027FC87FF7FA211C
(1790667811.166888) can0 014#047FC07FF8082E20
(1790667811.166940) can1 013#037FE97FF8021F1A
(1790667811.167006) can0 015#05800D7FF7FF311F
(1790667811.167087) can1 014#04802E7FF80C2F17
(1790667811.167130) can0 016#0680057FF7FE2A1C
(1790667811.167184) can1 015#0580137FF800211D
(1790667811.167310) can1 016#067FCB7FF7FD221B
(1790667811.173686) can0 004#8000800000000800
(1790667811.173688) can0 005#8000800000000800
(1790667811.173692) can0 006#8000800000000800
(1790667811.173736) can0 001#8000800000000800
(1790667811.173768) can0 002#8000800000000800
(1790667811.173810) can0 003#8000800000000800
(1790667811.173855) can1 004#8000800000000800
(1790667811.173931) can1 005#8000800000000800
(1790667811.174010) can1 006#8000800000000800
(1790667811.174094) can1 001#8000800000000800
(1790667811.174173) can1 002#8000800000000800
(1790667811.174257) can1 003#8000800000000800
(1790667811.174488) can0 011#017FA37FF806211E
(1790667811.174631) can0 012#0280F07FF8093120
(1790667811.174681) can1 011#017F707FF806231C
(1790667811.174729) can0 013#0380007FF7FB221B
(1790667811.174785) can1 012#027FC87FF7ED211C
(1790667811.174837) can0 014#047FC07FF7F72E20
(1790667811.174912) can1 013#037FE97FF8051F1A
(1790667811.174967) can0 015#05800D7FF804311F
(1790667811.175028) can1 014#04802E7FF8002F17
(1790667811.175111) can0 016#0680057FF7FE2A1C
(1790667811.175152) can1 015#0580137FF7FD211D
(1790667811.175283) can1 016#067FCB7FF7FD221B
(1790667811.181621) can0 004#8000800000000800
(1790667811.181659) can0 005#8000800000000800
(1790667811.181659) can0 006#8000800000000800
(1790667811.181705) can0 001#8000800000000800
(1790667811.181706) can0 002#8000800000000800
(1790667811.181735) can0 003#8000800000000800
(1790667811.181786) can1 004#8000800000000800
(1790667811.181865) can1 005#8000800000000800
(1790667811.181952) can1 006#8000800000000800
(1790667811.182055) can1 001#8000800000000800
(1790667811.182138) can1 002#8000800000000800
(1790667811.182177) can1 003#8000800000000800
(1790667811.182462) can0 011#017FA37FF7F8211E
(1790667811.182587) can0 012#0280F07FF8003120
(1790667811.182632) can1 011#017F707FF7FD231C
(1790667811.182709) can0 013#0380007FF7FA221B
(1790667811.182751) can1 012#027FC87FF7F8211C
(1790667811.182838) can0 014#047FC07FF7F92E20
(1790667811.182873) can1 013#037FE97FF8001F1A
(1790667811.182937) can0 015#05800D7FF801311F
(1790667811.182987) can1 014#04802E7FF7FF2F17
(1790667811.183067) can0 016#0680057FF7FE2A1C
(1790667811.183111) can1 015#0580137FF7FE211D
(1790667811.183228) can1 016#067FCB7FF7FC221B
(1790667811.189678) can0 004#8000800000000800
(1790667811.189720) can0 005#8000800000000800
(1790667811.189720) can0 006#8000800000000800
(1790667811.189749) can0 001#8000800000000800
(1790667811.189792) can0 002#8000800000000800
(1790667811.189792) can0 003#8000800000000800
(1790667811.189842) can1 004#8000800000000800
(1790667811.189927) can1 005#8000800000000800
(1790667811.190009) can1 006#8000800000000800
(1790667811.190088) can1 001#8000800000000800
(1790667811.190171) can1 002#8000800000000800
(1790667811.190254) can1 003#8000800000000800
(1790667811.190507) can0 011#017FA37FF7F7211E
(1790667811.190636) can0 012#0280F07FF8003120
(1790667811.190688) can1 011#017F707FF7FF231C
(1790667811.190756) can0 013#0380007FF7F4221B
(1790667811.190810) can1 012#027FC87FF7FE211C
(1790667811.190888) can0 014#047FC07FF80D2E20
(1790667811.190932) can1 013#037FE97FF8001F1A
(1790667811.191006) can0 015#05800D7FF803311F
(1790667811.191086) can1 014#04802E7FF7FF2F17
(1790667811.191131) can0 016#0680057FF7FC2A1C
(1790667811.191174) can1 015#0580137FF7FB211D
(1790667811.191284) can1 016#067FCB7FF7FD221B
(1790667811.197613) can0 004#8000800000000800
(1790667811.197655) can0 005#8000800000000800
(1790667811.197656) can0 006#8000800000000800
(1790667811.197705) can0 001#8000800000000800
(1790667811.197706) can0 002#8000800000000800
(1790667811.197742) can0 003#8000800000000800
(1790667811.197743) can1 004#8000800000000800
(1790667811.197816) can1 005#8000800000000800
(1790667811.197897) can1 006#8000800000000800
(1790667811.197981) can1 001#8000800000000800
(1790667811.198064) can1 002#8000800000000800
(1790667811.198136) can1 003#8000800000000800
(1790667811.198489) can0 011#017FA38007F7211E
(1790667811.198577) can0 012#0280F07FF8033120
(1790667811.198621) can1 011#017F707FF804231C
(1790667811.198709) can0 013#0380007FF80F221B
(1790667811.198752) can1 012#027FC87FF7F8211C
(1790667811.198811) can0 014#047FC07FF8022E20
(1790667811.198856) can1 013#037FE97FF7FA1F1A
(1790667811.198940) can0 015#05800D7FF803311F
(1790667811.198983) can1 014#04802E7FF8032F17
(1790667811.199074) can0 016#0680057FF8002A1C
(1790667811.199119) can1 015#0580137FF7FC211D
(1790667811.199193) can1 016#067FCB7FF7FF221B
(1790667811.205619) can0 004#8000800000000800
(1790667811.205658) can0 005#8000800000000800
(1790667811.205658) can0 006#8000800000000800
(1790667811.205701) can0 001#8000800000000800
(1790667811.205737) can0 002#8000800000000800
(1790667811.205737) can0 003#8000800000000800
(1790667811.205781) can1 004#8000800000000800
(1790667811.205866) can1 005#8000800000000800
(1790667811.205952) can1 006#8000800000000800
(1790667811.206054) can1 001#8000800000000800
(1790667811.206126) can1 002#8000800000000800
(1790667811.206208) can1 003#8000800000000800
(1790667811.206456) can0 011#017FA37FF804211E
(1790667811.206584) can0 012#0280F07FF7FD3120
(1790667811.206629) can1 011#017F707FF80E231C
(1790667811.206689) can0 013#038000800801221B
(1790667811.206732) can1 012#027FC87FF7F7201C
(1790667811.206811) can0 014#047FC07FF7FB2E20
(1790667811.206862) can1 013#037FE97FF7F81F1A
(1790667811.206940) can0 015#05800D7FF7FD311F
(1790667811.207006) can1 014#04802E7FF8102F17
(1790667811.207087) can0 016#0680057FF8052A1C
(1790667811.207126) can1 015#0580137FF7FD211D
(1790667811.207204) can1 016#067FCB7FF7FC221B
(1790667811.213683) can0 004#8000800000000800
(1790667811.213719) can0 005#8000800000000800
(1790667811.213719) can0 006#8000800000000800
(1790667811.213764) can0 001#8000800000000800
(1790667811.213765) can0 002#8000800000000800
(1790667811.213795) can0 003#8000800000000800
(1790667811.213843) can1 004#8000800000000800
(1790667811.213927) can1 005#8000800000000800
(1790667811.214009) can1 006#8000800000000800
(1790667811.214087) can1 001#8000800000000800
(1790667811.214172) can1 002#8000800000000800
(1790667811.214255) can1 003#8000800000000800
(1790667811.214533) can0 011#017FA37FF7F8211E
(1790667811.214636) can0 012#0280F07FF7FA3120
(1790667811.214688) can1 011#017F707FF806231C
(1790667811.214756) can0 013#0380007FF7FD221B
(1790667811.214810) can1 012#027FC87FF801211C
(1790667811.214888) can0 014#047FC07FF7F72E20
(1790667811.214932) can1 013#037FE97FF7F91F1A
(1790667811.215006) can0 015#05800D7FF802311F
(1790667811.215057) can1 014#04802E7FF8092F17
(1790667811.215131) can0 016#0680057FF8112A1C
(1790667811.215173) can1 015#0580137FF7FC211D
(1790667811.215284) can1 016#067FCB7FF800221B
(1790667811.221656) can0 004#8000800000000800
(1790667811.221694) can0 005#8000800000000800
(1790667811.221694) can0 006#8000800000000800
(1790667811.221734) can0 001#8000800000000800
(1790667811.221735) can0 002#8000800000000800
(1790667811.221778) can0 003#8000800000000800
(1790667811.221819) can1 004#8000800000000800
(1790667811.221898) can1 005#8000800000000800
(1790667811.221981) can1 006#8000800000000800
(1790667811.222064) can1 001#8000800000000800
(1790667811.222147) can1 002#8000800000000800
(1790667811.222226) can1 003#8000800000000800
(1790667811.222489) can0 011#017FA37FF7FA211E
(1790667811.222613) can0 012#0280F07FF7FE3120
(1790667811.222656) can1 011#017F707FF802231C
(1790667811.222729) can0 013#0380007FF7FD221B
(1790667811.222774) can1 012#027FC87FF7F5211C
(1790667811.222863) can0 014#047FC07FF7F12E20
(1790667811.222906) can1 013#037FE97FF8031F1A
(1790667811.222967) can0 015#05800D7FF806311F
(1790667811.223006) can1 014#04802E7FF7FF2F17
(1790667811.223092) can0 016#0680057FF8022A1C
(1790667811.223132) can1 015#0580137FF7F6211D
(1790667811.223237) can1 016#067FCB7FF803221B
(1790667811.229683) can0 004#8000800000000800
(1790667811.229687) can0 005#8000800000000800
(1790667811.229721) can0 006#8000800000000800
(1790667811.229721) can0 001#8000800000000800
(1790667811.229761) can0 002#8000800000000800
(1790667811.229761) can0 003#8000800000000800
(1790667811.229800) can1 004#8000800000000800
(1790667811.229842) can1 005#8000800000000800
(1790667811.229925) can1 006#8000800000000800
(1790667811.230006) can1 001#8000800000000800
(1790667811.230084) can1 002#8000800000000800
(1790667811.230173) can1 003#8000800000000800
(1790667811.230528) can0 011#017FA37FF7EF211E
(1790667811.230608) can0 012#0280F07FF8013120
(1790667811.230651) can1 011#017F707FF7FC231C
(1790667811.230727) can0 013#0380007FF809221B
(1790667811.230764) can1 012#027FC88007F8211C
(1790667811.230836) can0 014#047FC07FF7F92E20
(1790667811.230889) can1 013#037FE97FF8031F1A
(1790667811.230967) can0 015#05800D7FF801311F
(1790667811.231006) can1 014#04802E7FF8042F17
(1790667811.231092) can0 016#0680058008002A1C
(1790667811.231131) can1 015#0580137FF7F6211D
(1790667811.231232) can1 016#067FCB7FF802221B
(1790667811.237626) can0 004#8000800000000800
(1790667811.237633) can0 005#8000800000000800
(1790667811.237656) can0 006#8000800000000800
(1790667811.237704) can0 001#8000800000000800
(1790667811.237705) can0 002#8000800000000800
(1790667811.237740) can0 003#8000800000000800
(1790667811.237783) can1 004#8000800000000800
(1790667811.237866) can1 005#8000800000000800
(1790667811.237952) can1 006#8000800000000800
(1790667811.238054) can1 001#8000800000000800
(1790667811.238127) can1 002#8000800000000800
(1790667811.238208) can1 003#8000800000000800
(1790667811.238456) can0 011#017FA37FF7F8211E
(1790667811.238584) can0 012#0280F07FF8013120
(1790667811.238628) can1 011#017F707FF802231C
(1790667811.238710) can0 013#0380007FF806221B
(1790667811.238752) can1 012#027FC87FF7FF211C
(1790667811.238837) can0 014#047FC07FF7FF2E20
(1790667811.238880) can1 013#037FE97FF7FC1F1A
(1790667811.238940) can0 015#05800D7FF7FF311F
(1790667811.238984) can1 014#04802E7FF80B2F17
(1790667811.239072) can0 016#0680057FF7FF2A1C
(1790667811.239116) can1 015#0580137FF800211D
(1790667811.239204) can1 016#067FCB7FF803221B
(1790667811.245680) can0 004#8000800000000800
(1790667811.245680) can0 005#8000800000000800
(1790667811.245719) can0 006#8000800000000800
(1790667811.245719) can0 001#8000800000000800
(1790667811.245761) can0 002#8000800000000800
(1790667811.245806) can0 003#8000800000000800
(1790667811.245847) can1 004#8000800000000800
(1790667811.245927) can1 005#8000800000000800
(1790667811.246008) can1 006#8000800000000800
(1790667811.246090) can1 001#8000800000000800
(1790667811.246171) can1 002#8000800000000800
(1790667811.246255) can1 003#8000800000000800
(1790667811.246507) can0 011#017FA37FF7EB211E
(1790667811.246608) can0 012#0280F07FF7FA3120
(1790667811.246686) can1 011#017F707FF7FF231C
(1790667811.246730) can0 013#0380007FF7FD221B
(1790667811.246785) can1 012#027FC87FF7F9211C
(1790667811.246837) can0 014#047FC07FF8072E20
(1790667811.246915) can1 013#037FE97FF80F1F1A
(1790667811.246967) can0 015#05800D7FF800311F
(1790667811.247028) can1 014#04802E7FF8002F17
(1790667811.247112) can0 016#0680057FF7FE2A1C
(1790667811.247153) can1 015#0580137FF803211D
(1790667811.247285) can1 016#067FCB7FF801221B
(1790667811.253680) can0 004#8000800000000800
(1790667811.253682) can0 005#8000800000000800
(1790667811.253719) can0 006#8000800000000800
(1790667811.253719) can0 001#8000800000000800
(1790667811.253762) can0 002#8000800000000800
(1790667811.253806) can0 003#8000800000000800
(1790667811.253848) can1 004#8000800000000800
(1790667811.253927) can1 005#8000800000000800
(1790667811.254009) can1 006#8000800000000800
(1790667811.254089) can1 001#8000800000000800
(1790667811.254175) can1 002#8000800000000800
(1790667811.254255) can1 003#8000800000000800
(1790667811.254481) can0 011#017FA38007F5211E
(1790667811.254612) can0 012#0280F07FF7F93120
(1790667811.254689) can1 011#017F707FF7FB231C
(1790667811.254733) can0 013#0380007FF7FA221B
(1790667811.254786) can1 012#027FC87FF800211C
(1790667811.254837) can0 014#047FC07FF8002E20
(1790667811.254915) can1 013#037FE97FF8031F1A
(1790667811.254967) can0 015#05800D7FF7FD311F
(1790667811.255028) can1 014#04802E7FF8082F17
(1790667811.255104) can0 016#0680057FF8042A1C
(1790667811.255153) can1 015#0580137FF802211D
(1790667811.255283) can1 016#067FCB7FF7FE221B
(1790667811.261670) can0 004#8000800000000800
(1790667811.261672) can0 005#8000800000000800
(1790667811.261707) can0 006#8000800000000800
(1790667811.261707) can0 001#8000800000000800
(1790667811.261749) can0 002#8000800000000800
(1790667811.261788) can0 003#8000800000000800
(1790667811.261831) can1 004#8000800000000800
(1790667811.261906) can1 005#8000800000000800
(1790667811.261989) can1 006#8000800000000800
(1790667811.262075) can1 001#8000800000000800
(1790667811.262155) can1 002#8000800000000800
(1790667811.262234) can1 003#8000800000000800
(1790667811.262484) can0 011#017FA37FF7F9211E
(1790667811.262586) can0 012#0280F07FF7F93120
(1790667811.262638) can1 011#017F707FF801231C
(1790667811.262711) can0 013#0380007FF80C221B
(1790667811.262757) can1 012#027FC87FF805201C
(1790667811.262837) can0 014#047FC07FE7F82E20
(1790667811.262889) can1 013#037FE97FF7FF1F1A
(1790667811.262967) can0 015#05800D7FF802311F
(1790667811.263006) can1 014#04802E7FF7FC2F17
(1790667811.263088) can0 016#0680057FF80F2A1C
(1790667811.263131) can1 015#0580137FF800211D
(1790667811.263232) can1 016#067FCB7FF7FE221B
(1790667811.269680) can0 004#8000800000000800
(1790667811.269681) can0 005#8000800000000800
(1790667811.269719) can0 006#8000800000000800
(1790667811.269719) can0 001#8000800000000800
(1790667811.269762) can0 002#8000800000000800
(1790667811.269806) can0 003#8000800000000800
(1790667811.269847) can1 004#8000800000000800
(1790667811.269927) can1 005#8000800000000800
(1790667811.270009) can1 006#8000800000000800
(1790667811.270088) can1 001#8000800000000800
(1790667811.270175) can1 002#8000800000000800
(1790667811.270254) can1 003#8000800000000800
(1790667811.270480) can0 011#017FA37FF7FC211E
(1790667811.270662) can0 012#0280F07FF8073120
(1790667811.270689) can1 011#017F707FF801231C
(1790667811.270733) can0 013#0380007FF804221B
(1790667811.270785) can1 012#027FC87FF806211C
(1790667811.270837) can0 014#047FC07FF8022E20
(1790667811.270915) can1 013#037FE97FF7FE1F1A
(1790667811.270967) can0 015#05800D7FF805311F
(1790667811.271028) can1 014#04802E7FF7FC2F17
(1790667811.271110) can0 016#0680057FF8062A1C
(1790667811.271153) can1 015#0580137FF7FC211D
(1790667811.271283) can1 016#067FCB7FF7FD221B
(1790667811.277680) can0 004#8000800000000800
(1790667811.277682) can0 005#8000800000000800
(1790667811.277719) can0 006#8000800000000800
(1790667811.277720) can0 001#8000800000000800
(1790667811.277760) can0 002#8000800000000800
(1790667811.277796) can0 003#8000800000000800
(1790667811.277843) can1 004#8000800000000800
(1790667811.277932) can1 005#8000800000000800
(1790667811.278013) can1 006#8000800000000800
(1790667811.278094) can1 001#8000800000000800
(1790667811.278178) can1 002#8000800000000800
(1790667811.278257) can1 003#8000800000000800
(1790667811.278508) can0 011#017FA37FF7FD211E
(1790667811.278609) can0 012#0280F07FF8063120
(1790667811.278686) can1 011#017F707FF7FC231C
(1790667811.278730) can0 013#0380007FF801221B
(1790667811.278786) can1 012#027FC87FF7FD211C
(1790667811.278837) can0 014#047FC07FF7FD2E20
(1790667811.278915) can1 013#037FE97FF7FF1F1A
(1790667811.278967) can0 015#05800D7FF800311F
(1790667811.279027) can1 014#04802E7FF7FC2F17
(1790667811.279104) can0 016#0680057FF7FF2A1C
(1790667811.279153) can1 015#0580137FF7F5211D
(1790667811.279283) can1 016#067FCB7FF801221B
(1790667811.285683) can0 004#8000800000000800
(1790667811.285689) can0 005#8000800000000800
(1790667811.285721) can0 006#8000800000000800
(1790667811.285721) can0 001#8000800000000800
(1790667811.285757) can0 002#8000800000000800
(1790667811.285808) can0 003#8000800000000800
(1790667811.285840) can1 004#8000800000000800
(1790667811.285925) can1 005#8000800000000800
(1790667811.286011) can1 006#8000800000000800
(1790667811.286091) can1 001#8000800000000800
(1790667811.286176) can1 002#8000800000000800
(1790667811.286256) can1 003#8000800000000800
(1790667811.286482) can0 011#017FA37FF7F5211E
(1790667811.286612) can0 012#0280F07FF7FB3120
(1790667811.286689) can1 011#017F707FF808231C
(1790667811.286731) can0 013#0380007FF803221B
(1790667811.286786) can1 012#027FC87FF7FE211C
(1790667811.286837) can0 014#047FC07FF8012E20
(1790667811.286913) can1 013#037FE97FF8011F1A
(1790667811.286963) can0 015#05800D7FF800311F
(1790667811.287032) can1 014#04802E7FF7FD2F17
(1790667811.287093) can0 016#0680057FF7F92A1C
(1790667811.287153) can1 015#0580137FF7FF211D
(1790667811.287282) can1 016#067FCB7FF7FF221B
(1790667811.293680) can0 004#8000800000000800
(1790667811.293682) can0 005#8000800000000800
(1790667811.293719) can0 006#8000800000000800
(1790667811.293719) can0 001#8000800000000800
(1790667811.293762) can0 002#8000800000000800
(1790667811.293806) can0 003#8000800000000800
(1790667811.293847) can1 004#8000800000000800
(1790667811.293927) can1 005#8000800000000800
(1790667811.294010) can1 006#8000800000000800
(1790667811.294089) can1 001#8000800000000800
(1790667811.294175) can1 002#8000800000000800
(1790667811.294254) can1 003#8000800000000800
(1790667811.294481) can0 011#017FA37FF7FA211E
(1790667811.294611) can0 012#0280F07FF7F83120
(1790667811.294689) can1 011#017F707FF7FA231C
(1790667811.294733) can0 013#0380007FF7F9221B
(1790667811.294785) can1 012#027FC87FF810201C
(1790667811.294837) can0 014#047FC07FF80A2E20
(1790667811.294915) can1 013#037FE97FF7FA1F1A
(1790667811.294967) can0 015#05800D7FF803311F
(1790667811.295028) can1 014#04802E7FF7FE2F17
(1790667811.295104) can0 016#0680057FF80A2A1C
(1790667811.295153) can1 015#0580137FF7FF211D
(1790667811.295283) can1 016#067FCB7FF801221B
(1790667811.301669) can0 004#8000800000000800
(1790667811.301672) can0 005#8000800000000800
(1790667811.301709) can0 006#8000800000000800
(1790667811.301709) can0 001#8000800000000800
(1790667811.301748) can0 002#8000800000000800
(1790667811.301788) can0 003#8000800000000800
(1790667811.301830) can1 004#8000800000000800
(1790667811.301906) can1 005#8000800000000800
(1790667811.301990) can1 006#8000800000000800
(1790667811.302075) can1 001#8000800000000800
(1790667811.302157) can1 002#8000800000000800
(1790667811.302234) can1 003#8000800000000800
(1790667811.302487) can0 011#017FA37FF819211E
(1790667811.302590) can0 012#0280F07FF7FE3120
(1790667811.302642) can1 011#017F707FF7FA231C
(1790667811.302715) can0 013#0380007FF7FA221B
(1790667811.302759) can1 012#027FC87FF808211C
(1790667811.302837) can0 014#047FC07FF80A2E20
(1790667811.302889) can1 013#037FE97FF7FA1F1A
(1790667811.302967) can0 015#05800D7FF812311F
(1790667811.303007) can1 014#04802E7FF7FB2F17
(1790667811.303087) can0 016#0680057FF7FC2A1C
(1790667811.303132) can1 015#0580137FF806211D
(1790667811.303233) can1 016#067FCB7FF7FF221B
(1790667811.309682) can0 004#8000800000000800
(1790667811.309685) can0 005#8000800000000800
(1790667811.309721) can0 006#8000800000000800
(1790667811.309721) can0 001#8000800000000800
(1790667811.309757) can0 002#8000800000000800
(1790667811.309796) can0 003#8000800000000800
(1790667811.309844) can1 004#8000800000000800
(1790667811.309931) can1 005#8000800000000800
(1790667811.310013) can1 006#8000800000000800
(1790667811.310092) can1 001#8000800000000800
(1790667811.310177) can1 002#8000800000000800
(1790667811.310258) can1 003#8000800000000800
(1790667811.310488) can0 011#017FA37FF802211E
(1790667811.310632) can0 012#0280F07FF7FF3120
(1790667811.310681) can1 011#017F707FF7F8231C
(1790667811.310728) can0 013#0380007FF7FE221B
(1790667811.310785) can1 012#027FC87FF7FD211C
(1790667811.310837) can0 014#047FC07FF7FE2E20
(1790667811.310915) can1 013#037FE97FF7FF1F1A
(1790667811.310967) can0 015#05800D7FF800311F
(1790667811.311028) can1 014#04802E7FF7FB2F17
(1790667811.311110) can0 016#0680057FF7FB2A1C
(1790667811.311153) can1 015#0580137FF7FF211D
(1790667811.311283) can1 016#067FCB7FF7FC221B
(1790667811.317728) can0 004#8000800000000800
(1790667811.317761) can0 005#8000800000000800
(1790667811.317807) can0 006#8000800000000800
(1790667811.317808) can0 001#8000800000000800
(1790667811.317846) can0 002#8000800000000800
(1790667811.317847) can0 003#8000800000000800
(1790667811.317884) can1 004#8000800000000800
(1790667811.317967) can1 005#8000800000000800
(1790667811.318052) can1 006#8000800000000800
(1790667811.318131) can1 001#8000800000000800
(1790667811.318213) can1 002#8000800000000800
(1790667811.318298) can1 003#8000800000000800
(1790667811.318570) can0 011#017FA37FF7FE211E
(1790667811.318706) can0 012#0280F07FF8003120
(1790667811.318749) can1 011#017F707FF802231C
(1790667811.318811) can0 013#0380007FF7FE221B
(1790667811.318863) can1 012#027FC87FF807211C
(1790667811.318942) can0 014#047FC07FF8122E20
(1790667811.318984) can1 013#037FE97FF7FF1F1A
(1790667811.319073) can0 015#05800D7FF800311F
(1790667811.319116) can1 014#04802E7FF7FF2F17
(1790667811.319179) can0 016#0680057FF7F82A1C
(1790667811.319222) can1 015#0580137FF804211D
(1790667811.319335) can1 016#067FCB7FF7FE221B
(1790667811.325623) can0 004#8000800000000800
(1790667811.325657) can0 005#8000800000000800
(1790667811.325706) can0 006#8000800000000800
(1790667811.325707) can0 001#8000800000000800
(1790667811.325737) can0 002#8000800000000800
(1790667811.325738) can0 003#8000800000000800
(1790667811.325785) can1 004#8000800000000800
(1790667811.325867) can1 005#8000800000000800
(1790667811.325955) can1 006#8000800000000800
(1790667811.326058) can1 001#8000800000000800
(1790667811.326138) can1 002#8000800000000800
(1790667811.326177) can1 003#8000800000000800
(1790667811.326465) can0 011#017FA37FF7ED211E
(1790667811.326593) can0 012#0280F07FF7FC3120
(1790667811.326625) can1 011#017F707FF804231C
(1790667811.326689) can0 013#0380007FF803221B
(1790667811.326733) can1 012#027FC87FF7F9211C
(1790667811.326812) can0 014#047FC07FF8032E20
(1790667811.326864) can1 013#037FE97FF8001F1A
(1790667811.326939) can0 015#05800D7FF7F9311F
(1790667811.326989) can1 014#04802E7FF7FB2F17
(1790667811.327069) can0 016#0680057FF7FB2A1C
(1790667811.327112) can1 015#0580137FF7FE211D
(1790667811.327214) can1 016#067FCB7FF801221B
(1790667811.333616) can0 004#8000800000000800
(1790667811.333658) can0 005#8000800000000800
(1790667811.333696) can0 006#8000800000000800
(1790667811.333697) can0 001#8000800000000800
(1790667811.333736) can0 002#8000800000000800
(1790667811.333736) can0 003#8000800000000800
(1790667811.333782) can1 004#8000800000000800
(1790667811.333867) can1 005#8000800000000800
(1790667811.333953) can1 006#8000800000000800
(1790667811.334039) can1 001#8000800000000800
(1790667811.334118) can1 002#8000800000000800
(1790667811.334201) can1 003#8000800000000800
(1790667811.334470) can0 011#017FA38007FC211E
(1790667811.334580) can0 012#0280F07FF7FF3120
(1790667811.334632) can1 011#017F707FF7FF231C
(1790667811.334711) can0 013#0380007FF805221B
(1790667811.334754) can1 012#027FC87FF7FF211C
(1790667811.334811) can0 014#047FC07FF8022E20
(1790667811.334864) can1 013#037FE97FF8011F1A
(1790667811.334941) can0 015#05800D7FF7FF311F
(1790667811.334986) can1 014#04802E7FF7FE2F17
(1790667811.335073) can0 016#0680057FF7FA2A1C
(1790667811.335117) can1 015#0580137FF7F8211D
(1790667811.335206) can1 016#067FCB7FF7FB221B
(1790667811.341663) can0 004#8000800000000800
(1790667811.341696) can0 005#8000800000000800
(1790667811.341737) can0 006#8000800000000800
(1790667811.341738) can0 001#8000800000000800
(1790667811.341777) can0 002#8000800000000800
(1790667811.341778) can0 003#8000800000000800
(1790667811.341822) can1 004#8000800000000800
(1790667811.341900) can1 005#8000800000000800
(1790667811.341979) can1 006#8000800000000800
(1790667811.342065) can1 001#8000800000000800
(1790667811.342139) can1 002#8000800000000800
(1790667811.342177) can1 003#8000800000000800
(1790667811.342529) can0 011#017FA37FF7FD211E
(1790667811.342633) can0 012#0280F07FF7FF3120
(1790667811.342676) can1 011#017F707FF7F9231C
(1790667811.342757) can0 013#0380007FF7FE221B
(1790667811.342793) can1 012#027FC87FF7FA211C
(1790667811.342863) can0 014#047FC07FF8012E20
(1790667811.342905) can1 013#037FE97FF8001F1A
(1790667811.343007) can0 015#05800D7FF802311F
(1790667811.343052) can1 014#04802E7FF7FC2F17
(1790667811.343116) can0 016#0680057FF7FB2A1C
(1790667811.343156) can1 015#0580137FF7FE211D
(1790667811.343259) can1 016#067FCB7FF7FA221B
(1790667811.349617) can0 004#8000800000000800
(1790667811.349660) can0 005#8000800000000800
(1790667811.349661) can0 006#8000800000000800
(1790667811.349694) can0 001#8000800000000800
(1790667811.349740) can0 002#8000800000000800
(1790667811.349741) can0 003#8000800000000800
(1790667811.349779) can1 004#8000800000000800
(1790667811.349820) can1 005#8000800000000800
(1790667811.349897) can1 006#8000800000000800
(1790667811.350001) can1 001#8000800000000800
(1790667811.350073) can1 002#8000800000000800
(1790667811.350154) can1 003#8000800000000800
(1790667811.350457) can0 011#017FA37FF7FA211E
(1790667811.350587) can0 012#0280F07FF8033120
(1790667811.350630) can1 011#017F707FF7FB231C
(1790667811.350690) can0 013#0380007FF7F6221B
(1790667811.350734) can1 012#027FC87FF7F4211C
(1790667811.350813) can0 014#047FC07FF8042E20
(1790667811.350864) can1 013#037FE97FF80C1F1A
(1790667811.350942) can0 015#05800D7FF802311F
(1790667811.351008) can1 014#04802E7FF8002F17
(1790667811.351089) can0 016#0680057FF7FD2A1C
(1790667811.351127) can1 015#0580137FF805211D
(1790667811.351233) can1 016#067FCB7FF7FE221B
(1790667811.357615) can0 004#8000800000000800
(1790667811.357651) can0 005#8000800000000800
(1790667811.357694) can0 006#8000800000000800
(1790667811.357694) can0 001#8000800000000800
(1790667811.357737) can0 002#8000800000000800
(1790667811.357738) can0 003#8000800000000800
(1790667811.357775) can1 004#8000800000000800
(1790667811.357818) can1 005#8000800000000800
(1790667811.357899) can1 006#8000800000000800
(1790667811.357982) can1 001#8000800000000800
(1790667811.358065) can1 002#8000800000000800
(1790667811.358137) can1 003#8000800000000800
(1790667811.358482) can0 011#017FA37FF7E8211E
(1790667811.358580) can0 012#0280F07FF7FF3120
(1790667811.358632) can1 011#017F707FF800231C
(1790667811.358710) can0 013#0380007FF7F6221B
(1790667811.358754) can1 012#027FC87FF805211C
(1790667811.358811) can0 014#047FC07FF80F2E20
(1790667811.358863) can1 013#037FE97FF8051F1A
(1790667811.358941) can0 015#05800D7FF7FC311F
(1790667811.358986) can1 014#04802E7FF7FD2F17
(1790667811.359074) can0 016#0680057FF7FE2A1C
(1790667811.359117) can1 015#0580137FF7FB211D
(1790667811.359206) can1 016#067FCB7FF7FD221B
(1790667811.365655) can0 004#8000800000000800
(1790667811.365692) can0 005#8000800000000800
(1790667811.365735) can0 006#8000800000000800
(1790667811.365736) can0 001#8000800000000800
(1790667811.365778) can0 002#8000800000000800
(1790667811.365813) can0 003#8000800000000800
(1790667811.365857) can1 004#8000800000000800
(1790667811.365934) can1 005#8000800000000800
(1790667811.366016) can1 006#8000800000000800
(1790667811.366092) can1 001#8000800000000800
(1790667811.366175) can1 002#8000800000000800
(1790667811.366259) can1 003#8000800000000800
(1790667811.366509) can0 011#017FA37FF7FB211E
(1790667811.366613) can0 012#0280F07FF80A3120
(1790667811.366689) can1 011#017F707FF7F2231C
(1790667811.366734) can0 013#0380007FF7FB221B
(1790667811.366785) can1 012#027FC87FF7F7211C
(1790667811.366863) can0 014#047FC07FF7FE2E20
(1790667811.366916) can1 013#037FE97FF8061F1A
(1790667811.366967) can0 015#05800D7FF803311F
(1790667811.367028) can1 014#04802E7FF7FB2F17
(1790667811.367111) can0 016#0680057FF7F22A1C
(1790667811.367154) can1 015#0580137FF7FB211D
(1790667811.367283) can1 016#067FCB7FF7FF221B
(1790667811.373616) can0 004#8000800000000800
(1790667811.373651) can0 005#8000800000000800
(1790667811.373694) can0 006#8000800000000800
(1790667811.373694) can0 001#8000800000000800
(1790667811.373737) can0 002#8000800000000800
(1790667811.373738) can0 003#8000800000000800
(1790667811.373776) can1 004#8000800000000800
(1790667811.373817) can1 005#8000800000000800
(1790667811.373899) can1 006#8000800000000800
(1790667811.373982) can1 001#8000800000000800
(1790667811.374066) can1 002#8000800000000800
(1790667811.374137) can1 003#8000800000000800
(1790667811.374491) can0 011#017FA37FF807211E
(1790667811.374582) can0 012#0280F07FF8023120
(1790667811.374633) can1 011#017F707FF800231C
(1790667811.374711) can0 013#0380007FF7F9221B
(1790667811.374755) can1 012#027FC87FF803211C
(1790667811.374812) can0 014#047FC07FF7F72E20
(1790667811.374904) can1 013#037FE97FF8091F1A
(1790667811.374942) can0 015#05800D7FF801311F
(1790667811.375010) can1 014#04802E7FF7FE2F17
(1790667811.375090) can0 016#0680057FF7F92A1C
(1790667811.375131) can1 015#0580137FF7FC211D
(1790667811.375235) can1 016#067FCB7FF7FF221B
(1790667811.381618) can0 004#8000800000000800
(1790667811.381654) can0 005#8000800000000800
(1790667811.381694) can0 006#8000800000000800
(1790667811.381695) can0 001#8000800000000800
(1790667811.381736) can0 002#8000800000000800
(1790667811.381737) can0 003#8000800000000800
(1790667811.381783) can1 004#8000800000000800
(1790667811.381867) can1 005#8000800000000800
(1790667811.381953) can1 006#8000800000000800
(1790667811.382058) can1 001#8000800000000800
(1790667811.382140) can1 002#8000800000000800
(1790667811.382178) can1 003#8000800000000800
(1790667811.382457) can0 011#017FA37FF805211E
(1790667811.382586) can0 012#0280F07FF7FE3120
(1790667811.382628) can1 011#017F707FF7FC231C
(1790667811.382689) can0 013#0380007FF7F1221B
(1790667811.382734) can1 012#027FC87FF80B211C
(1790667811.382812) can0 014#047FC07FF80B2E20
(1790667811.382864) can1 013#037FE97FF8061F1A
(1790667811.382942) can0 015#05800D7FF808311F
(1790667811.382984) can1 014#04802E7FF7FA2F17
(1790667811.383073) can0 016#0680057FF8042A1C
(1790667811.383117) can1 015#0580137FF7FE211D
(1790667811.383205) can1 016#067FCB7FF7FE221B
(1790667811.389618) can0 004#8000800000000800
(1790667811.389653) can0 005#8000800000000800
(1790667811.389695) can0 006#8000800000000800
(1790667811.389696) can0 001#8000800000000800
(1790667811.389738) can0 002#8000800000000800
(1790667811.389771) can0 003#8000800000000800
(1790667811.389820) can1 004#8000800000000800
(1790667811.389899) can1 005#8000800000000800
(1790667811.389982) can1 006#8000800000000800
(1790667811.390066) can1 001#8000800000000800
(1790667811.390148) can1 002#8000800000000800
(1790667811.390234) can1 003#8000800000000800
(1790667811.390456) can0 011#017FA37FF808211E
(1790667811.390586) can0 012#0280F07FF7FE3120
(1790667811.390638) can1 011#017F707FF800231C
(1790667811.390711) can0 013#0380007FF7FA221B
(1790667811.390757) can1 012#027FC87FF808211C
(1790667811.390838) can0 014#047FC07FF80F2E20
(1790667811.390890) can1 013#037FE97FF7FF1F1A
(1790667811.390942) can0 015#05800D7FF80E311F
(1790667811.391007) can1 014#04802E7FF7FC2F17
(1790667811.391089) can0 016#0680057FF80B2A1C
(1790667811.391132) can1 015#0580137FF7FD211D
(1790667811.391233) can1 016#067FCB7FF803221B
(1790667811.397720) can0 004#8000800000000800
(1790667811.397741) can0 005#8000800000000800
(1790667811.397741) can0 006#8000800000000800
(1790667811.397778) can0 001#8000800000000800
(1790667811.397821) can0 002#8000800000000800
(1790667811.397821) can0 003#8000800000000800
(1790667811.397860) can1 004#8000800000000800
(1790667811.397937) can1 005#8000800000000800
(1790667811.398024) can1 006#8000800000000800
(1790667811.398097) can1 001#8000800000000800
(1790667811.398176) can1 002#8000800000000800
(1790667811.398258) can1 003#8000800000000800
(1790667811.398535) can0 011#017FA37FF7ED211E
(1790667811.398665) can0 012#0280F07FF7FC3120
(1790667811.398712) can1 011#017F707FF7FD231C
(1790667811.398787) can0 013#0380007FF804221B
(1790667811.398838) can1 012#027FC87FF80D211C
(1790667811.398917) can0 014#047FC07FF80C2E20
(1790667811.398960) can1 013#037FE97FF80C1F1A
(1790667811.399029) can0 015#05800D7FF7FD311F
(1790667811.399071) can1 014#04802E7FF7FD2F17
(1790667811.399133) can0 016#06800580081A2A1C
(1790667811.399182) can1 015#0580137FF802211D
(1790667811.399312) can1 016#067FCB7FF800221B
(1790667811.405669) can0 004#8000800000000800
(1790667811.405671) can0 005#8000800000000800
(1790667811.405707) can0 006#8000800000000800
(1790667811.405707) can0 001#8000800000000800
(1790667811.405750) can0 002#8000800000000800
(1790667811.405789) can0 003#8000800000000800
(1790667811.405832) can1 004#8000800000000800
(1790667811.405907) can1 005#8000800000000800
(1790667811.405991) can1 006#8000800000000800
(1790667811.406078) can1 001#8000800000000800
(1790667811.406156) can1 002#8000800000000800
(1790667811.406235) can1 003#8000800000000800
(1790667811.406484) can0 011#017FA37FF7F3211E
(1790667811.406588) can0 012#0280F07FF7FF3120
(1790667811.406640) can1 011#017F707FF802231C
(1790667811.406712) can0 013#0380007FF814221B
(1790667811.406759) can1 012#027FC88007FF211C
(1790667811.406839) can0 014#047FC07FF8122E20
(1790667811.406889) can1 013#037FE97FF7FB1F1A
(1790667811.406967) can0 015#05800D7FF803311F
(1790667811.407008) can1 014#04802E7FF7FE2F17
(1790667811.407088) can0 016#0680057FE8012A1C
(1790667811.407124) can1 015#0580137FF801211D
(1790667811.407232) can1 016#067FCB7FF803221B
(1790667811.413686) can0 004#8000800000000800
(1790667811.413722) can0 005#8000800000000800
(1790667811.413723) can0 006#8000800000000800
(1790667811.413752) can0 001#8000800000000800
(1790667811.413795) can0 002#8000800000000800
(1790667811.413796) can0 003#8000800000000800
(1790667811.413844) can1 004#8000800000000800
(1790667811.413929) can1 005#8000800000000800
(1790667811.414013) can1 006#8000800000000800
(1790667811.414092) can1 001#8000800000000800
(1790667811.414175) can1 002#8000800000000800
(1790667811.414257) can1 003#8000800000000800
(1790667811.414535) can0 011#017FA37FF7F7211E
(1790667811.414639) can0 012#0280F07FF7F93120
(1790667811.414691) can1 011#017F707FF7FA231C
(1790667811.414759) can0 013#0380007FF7FE221B
(1790667811.414813) can1 012#027FC87FF805211C
(1790667811.414892) can0 014#047FC07FF7F82E20
(1790667811.414935) can1 013#037FE97FF8071F1A
(1790667811.415009) can0 015#05800D7FF800311F
(1790667811.415056) can1 014#04802E7FF7F92F17
(1790667811.415134) can0 016#0680057FF80F2A1C
(1790667811.415177) can1 015#0580137FF7FC211D
(1790667811.415287) can1 016#067FCB7FF7FE221B
(1790667811.421727) can0 004#8000800000000800
(1790667811.421747) can0 005#8000800000000800
(1790667811.421785) can0 006#8000800000000800
(1790667811.421826) can0 001#8000800000000800
(1790667811.421827) can0 002#8000800000000800
(1790667811.421866) can0 003#8000800000000800
(1790667811.421912) can1 004#8000800000000800
(1790667811.421988) can1 005#8000800000000800
(1790667811.422071) can1 006#8000800000000800
(1790667811.422154) can1 001#8000800000000800
(1790667811.422232) can1 002#8000800000000800
(1790667811.422312) can1 003#8000800000000800
(1790667811.422538) can0 011#017FA37FF7F2211E
(1790667811.422668) can0 012#0280F07FF7FB3120
(1790667811.422735) can1 011#017F707FF800231C
(1790667811.422789) can0 013#0380007FF7FD221B
(1790667811.422867) can1 012#027FC87FF7FD201C
(1790667811.422919) can0 014#047FC07FF80B2E20
(1790667811.422971) can1 013#037FE97FF7F91F1A
(1790667811.423032) can0 015#05800D7FF7FF311F
(1790667811.423108) can1 014#04802E7FF8002F17
(1790667811.423153) can0 016#0680057FF8012A1C
(1790667811.423212) can1 015#0580137FF7F9211D
(1790667811.423340) can1 016#067FCB7FF7FE221B
(1790667811.429646) can0 004#8000800000000800
(1790667811.429688) can0 005#8000800000000800
(1790667811.429690) can0 006#8000800000000800
(1790667811.429723) can0 001#8000800000000800
(1790667811.429724) can0 002#8000800000000800
(1790667811.429773) can0 003#8000800000000800
(1790667811.429774) can1 004#8000800000000800
(1790667811.429847) can1 005#8000800000000800
(1790667811.429931) can1 006#8000800000000800
(1790667811.430014) can1 001#8000800000000800
(1790667811.430092) can1 002#8000800000000800
(1790667811.430177) can1 003#8000800000000800
(1790667811.430511) can0 011#017FA37FF7F4211E
(1790667811.430611) can0 012#0280F07FF8023120
(1790667811.430647) can1 011#017F707FF7FF231C
(1790667811.430732) can0 013#0380007FF7FE221B
(1790667811.430768) can1 012#027FC87FF7F2211C
(1790667811.430840) can0 014#047FC07FF8002E20
(1790667811.430884) can1 013#037FE97FF7FD1F1A
(1790667811.430966) can0 015#05800D7FF804311F
(1790667811.431010) can1 014#04802E7FF7FC2F17
(1790667811.431089) can0 016#0680057FF7F52A1C
(1790667811.431132) can1 015#0580137FF801211D
(1790667811.431216) can1 016#067FCB7FF806221B
(1790667811.437687) can0 004#8000800000000800
(1790667811.437731) can0 005#8000800000000800
(1790667811.437732) can0 006#8000800000000800
(1790667811.437733) can0 001#8000800000000800
(1790667811.437765) can0 002#8000800000000800
(1790667811.437799) can0 003#8000800000000800
(1790667811.437872) can1 004#8000800000000800
(1790667811.437958) can1 005#8000800000000800
(1790667811.438060) can1 006#8000800000000800
(1790667811.438144) can1 001#8000800000000800
(1790667811.438221) can1 002#8000800000000800
(1790667811.438298) can1 003#8000800000000800
(1790667811.438537) can0 011#017FA37FF7F4211E
(1790667811.438640) can0 012#0280F07FF8023120
(1790667811.438692) can1 011#017F707FF802231C
(1790667811.438761) can0 013#0380007FE801221B
(1790667811.438815) can1 012#027FC87FF7F7201C
(1790667811.438893) can0 014#047FC07FF8182E20
(1790667811.438937) can1 013#037FE97FF8001F1A
(1790667811.439011) can0 015#05800D7FF7FE311F
(1790667811.439057) can1 014#04802E7FF7FB2F17
(1790667811.439135) can0 016#0680057FF7FA2A1C
(1790667811.439179) can1 015#0580137FF7FF211D
(1790667811.439288) can1 016#067FCB7FF802221B
(1790667811.445635) can0 004#8000800000000800
(1790667811.445676) can0 005#8000800000000800
(1790667811.445677) can0 006#8000800000000800
(1790667811.445714) can0 001#8000800000000800
(1790667811.445715) can0 002#8000800000000800
(1790667811.445751) can0 003#8000800000000800
(1790667811.445799) can1 004#8000800000000800
(1790667811.445876) can1 005#8000800000000800
(1790667811.445963) can1 006#8000800000000800
(1790667811.446077) can1 001#8000800000000800
(1790667811.446143) can1 002#8000800000000800
(1790667811.446181) can1 003#8000800000000800
(1790667811.446471) can0 011#017FA37FF7FA211E
(1790667811.446608) can0 012#0280F07FF7FD3120
(1790667811.446652) can1 011#017F707FF7FF231C
(1790667811.446711) can0 013#0380007FF801221B
(1790667811.446755) can1 012#027FC87FF7FE211C
(1790667811.446840) can0 014#047FC07FF8022E20
(1790667811.446884) can1 013#037FE97FF80C1F1A
(1790667811.446966) can0 015#05800D7FF80A311F
(1790667811.447010) can1 014#04802E7FF7FE2F17
(1790667811.447087) can0 016#0680057FF7F52A1C
(1790667811.447125) can1 015#0580137FF802211D
(1790667811.447209) can1 016#067FCB7FF7FD221B
(1790667811.453653) can0 004#8000800000000800
(1790667811.453686) can0 005#8000800000000800
(1790667811.453686) can0 006#8000800000000800
(1790667811.453729) can0 001#8000800000000800
(1790667811.453731) can0 002#8000800000000800
(1790667811.453775) can0 003#8000800000000800
(1790667811.453776) can1 004#8000800000000800
(1790667811.453848) can1 005#8000800000000800
(1790667811.453932) can1 006#8000800000000800
(1790667811.454021) can1 001#8000800000000800
(1790667811.454130) can1 002#8000800000000800
(1790667811.454210) can1 003#8000800000000800
(1790667811.454503) can0 011#017FA37FF7F5211E
(1790667811.454622) can0 012#0280F07FF7FF3120
(1790667811.454674) can1 011#017F707FF7FB231C
(1790667811.454752) can0 013#0380007FF806221B
(1790667811.454783) can1 012#027FC8800808211C
(1790667811.454845) can0 014#047FC07FF8092E20
(1790667811.454887) can1 013#037FE97FF8011F1A
(1790667811.454975) can0 015#05800D7FF804311F
(1790667811.455016) can1 014#04802E7FF7FF2F17
(1790667811.455099) can0 016#0680057FF7F72A1C
(1790667811.455141) can1 015#0580137FF7FD211D
(1790667811.455241) can1 016#067FCB7FF800221B
(1790667811.461623) can0 004#8000800000000800
(1790667811.461657) can0 005#8000800000000800
(1790667811.461699) can0 006#8000800000000800
(1790667811.461699) can0 001#8000800000000800
(1790667811.461737) can0 002#8000800000000800
(1790667811.461738) can0 003#8000800000000800
(1790667811.461785) can1 004#8000800000000800
(1790667811.461868) can1 005#8000800000000800
(1790667811.461954) can1 006#8000800000000800
(1790667811.462057) can1 001#8000800000000800
(1790667811.462141) can1 002#8000800000000800
(1790667811.462179) can1 003#8000800000000800
(1790667811.462457) can0 011#017FA37FF80B211E
(1790667811.462587) can0 012#0280F07FF8043120
(1790667811.462631) can1 011#017F707FF7FB231C
(1790667811.462691) can0 013#0380007FF80C221B
(1790667811.462735) can1 012#027FC87FF810211C
(1790667811.462812) can0 014#047FC07FF8002E20
(1790667811.462864) can1 013#037FE97FF7F51F1A
(1790667811.462942) can0 015#05800D7FF7FE311F
(1790667811.462986) can1 014#04802E7FF8002F17
(1790667811.463074) can0 016#0680057FF7FD2A1C
(1790667811.463118) can1 015#0580137FF7FA211D
(1790667811.463206) can1 016#067FCB7FF7FE221B
(1790667811.469621) can0 004#8000800000000800
(1790667811.469657) can0 005#8000800000000800
(1790667811.469707) can0 006#8000800000000800
(1790667811.469708) can0 001#8000800000000800
(1790667811.469741) can0 002#8000800000000800
(1790667811.469742) can0 003#8000800000000800
(1790667811.469787) can1 004#8000800000000800
(1790667811.469869) can1 005#8000800000000800
(1790667811.469955) can1 006#8000800000000800
(1790667811.470044) can1 001#8000800000000800
(1790667811.470117) can1 002#8000800000000800
(1790667811.470202) can1 003#8000800000000800
(1790667811.470465) can0 011#017FA37FF805211E
(1790667811.470617) can0 012#0280F07FF8153120
(1790667811.470619) can1 011#017F707FF80D231C
(1790667811.470690) can0 013#0380007FF802221B
(1790667811.470734) can1 012#027FC87FF7FA211C
(1790667811.470813) can0 014#047FC07FF8052E20
(1790667811.470865) can1 013#037FE97FF7FF1F1A
(1790667811.470940) can0 015#05800D7FF7FF311F
(1790667811.470990) can1 014#04802E7FF7F82F17
(1790667811.471070) can0 016#0680057FF7F32A1C
(1790667811.471113) can1 015#0580137FF7F9211D
(1790667811.471218) can1 016#067FCB7FF801221B
(1790667811.477687) can0 004#8000800000000800
(1790667811.477691) can0 005#8000800000000800
(1790667811.477727) can0 006#8000800000000800
(1790667811.477728) can0 001#8000800000000800
(1790667811.477761) can0 002#8000800000000800
(1790667811.477800) can0 003#8000800000000800
(1790667811.477848) can1 004#8000800000000800
(1790667811.477931) can1 005#8000800000000800
(1790667811.478013) can1 006#8000800000000800
(1790667811.478094) can1 001#8000800000000800
(1790667811.478176) can1 002#8000800000000800
(1790667811.478259) can1 003#8000800000000800
(1790667811.478484) can0 011#017FA37FF7ED211E
(1790667811.478614) can0 012#0280F07FF8083120
(1790667811.478692) can1 011#017F707FF7FD231C
(1790667811.478736) can0 013#0380007FF802221B
(1790667811.478788) can1 012#027FC87FF7ED211C
(1790667811.478840) can0 014#047FC07FF8042E20
(1790667811.478918) can1 013#037FE97FF8011F1A
(1790667811.478970) can0 015#05800D7FF803311F
(1790667811.479042) can1 014#04802E7FF8062F17
(1790667811.479094) can0 016#0680057FF8022A1C
(1790667811.479156) can1 015#0580137FF7F9211D
(1790667811.479286) can1 016#067FCB7FF800221B
(1790667811.485616) can0 004#8000800000000800
(1790667811.485660) can0 005#8000800000000800
(1790667811.485661) can0 006#8000800000000800
(1790667811.485692) can0 001#8000800000000800
(1790667811.485693) can0 002#8000800000000800
(1790667811.485727) can0 003#8000800000000800
(1790667811.485771) can1 004#8000800000000800
(1790667811.485849) can1 005#8000800000000800
(1790667811.485932) can1 006#8000800000000800
(1790667811.486013) can1 001#8000800000000800
(1790667811.486091) can1 002#8000800000000800
(1790667811.486175) can1 003#8000800000000800
(1790667811.486474) can0 011#017FA37FF7F8211E
(1790667811.486582) can0 012#0280F07FF81C3120
(1790667811.486626) can1 011#017F707FF7FD231C
(1790667811.486686) can0 013#0380007FF803221B
(1790667811.486729) can1 012#027FC87FF804211C
(1790667811.486814) can0 014#047FC07FF7F42E20
(1790667811.486858) can1 013#037FE97FF7F81F1A
(1790667811.486944) can0 015#05800D7FF801311F
(1790667811.486987) can1 014#04802E7FF8002F17
(1790667811.487075) can0 016#0680057FF8012A1C
(1790667811.487119) can1 015#0580137FF7F4211D
(1790667811.487207) can1 016#067FCB7FF803221B
(1790667811.493704) can0 004#8000800000000800
(1790667811.493751) can0 005#8000800000000800
(1790667811.493751) can0 006#8000800000000800
(1790667811.493780) can0 001#8000800000000800
(1790667811.493821) can0 002#8000800000000800
(1790667811.493822) can0 003#8000800000000800
(1790667811.493863) can1 004#8000800000000800
(1790667811.493940) can1 005#8000800000000800
(1790667811.494026) can1 006#8000800000000800
(1790667811.494104) can1 001#8000800000000800
(1790667811.494186) can1 002#8000800000000800
(1790667811.494263) can1 003#8000800000000800
(1790667811.494545) can0 011#017FA37FF7F0211E
(1790667811.494656) can0 012#0280F07FF8063120
(1790667811.494708) can1 011#017F707FF801231C
(1790667811.494788) can0 013#0380007FF802221B
(1790667811.494832) can1 012#027FC87FF817211C
(1790667811.494918) can0 014#047FC07FF7F92E20
(1790667811.494954) can1 013#037FE97FF8081F1A
(1790667811.495031) can0 015#05800D7FF800311F
(1790667811.495074) can1 014#04802E7FF8002F17
(1790667811.495135) can0 016#0680057FF8012A1C
(1790667811.495184) can1 015#0580137FF7F6211D
(1790667811.495288) can1 016#067FCB7FF802221B
(1790667811.501687) can0 004#8000800000000800
(1790667811.501689) can0 005#8000800000000800
(1790667811.501726) can0 006#8000800000000800
(1790667811.501727) can0 001#8000800000000800
(1790667811.501767) can0 002#8000800000000800
(1790667811.501769) can0 003#8000800000000800
(1790667811.501805) can1 004#8000800000000800
(1790667811.501848) can1 005#8000800000000800
(1790667811.501930) can1 006#8000800000000800
(1790667811.502013) can1 001#8000800000000800
(1790667811.502095) can1 002#8000800000000800
(1790667811.502177) can1 003#8000800000000800
(1790667811.502513) can0 011#017FA3800814211E
(1790667811.502612) can0 012#0280F07FF7FD3120
(1790667811.502657) can1 011#017F707FF805231C
(1790667811.502743) can0 013#0380007FF804221B
(1790667811.502770) can1 012#027FC87FF802211C
(1790667811.502841) can0 014#047FC07FF7FE2E20
(1790667811.502894) can1 013#037FE97FF7F81F1A
(1790667811.502971) can0 015#05800D7FF808311F
(1790667811.503011) can1 014#04802E7FF7FC2F17
(1790667811.503095) can0 016#0680057FF7FF2A1C
(1790667811.503142) can1 015#0580137FF7FD211D
(1790667811.503238) can1 016#067FCB7FF7FE221B
(1790667811.509680) can0 004#8000800000000800
(1790667811.509685) can0 005#8000800000000800
(1790667811.509716) can0 006#8000800000000800
(1790667811.509716) can0 001#8000800000000800
(1790667811.509762) can0 002#8000800000000800
(1790667811.509791) can0 003#8000800000000800
(1790667811.509841) can1 004#8000800000000800
(1790667811.509935) can1 005#8000800000000800
(1790667811.510019) can1 006#8000800000000800
(1790667811.510021) can1 014#04802E7FF7FC2F17
(1790667811.510095) can1 001#8000800000000800
(1790667811.510181) can1 002#8000800000000800
(1790667811.510259) can1 003#8000800000000800
(1790667811.510486) can0 011#017FA3800804211E
(1790667811.510589) can0 012#0280F07FF7FF3120
(1790667811.510713) can0 013#0380007FF7F7221B
(1790667811.510761) can1 011#017F707FF804231C
(1790667811.510841) can0 014#047FC07FF7FF2E20
(1790667811.510893) can1 012#027FC87FF7FF211C
(1790667811.510971) can0 015#05800D7FF800311F
(1790667811.511011) can1 013#037FE97FF8021F1A
(1790667811.511092) can0 016#0680057FF80F2A1C
(1790667811.511136) can1 015#0580137FF7FC211D
(1790667811.511238) can1 016#067FCB7FF801221B
(1790667811.517689) can0 004#8000800000000800
(1790667811.517691) can0 005#8000800000000800
(1790667811.517731) can0 006#8000800000000800
(1790667811.517733) can0 001#8000800000000800
(1790667811.517764) can0 002#8000800000000800
(1790667811.517801) can0 003#8000800000000800
(1790667811.517851) can1 004#8000800000000800
(1790667811.517933) can1 005#8000800000000800
(1790667811.518017) can1 006#8000800000000800
(1790667811.518095) can1 001#8000800000000800
(1790667811.518179) can1 002#8000800000000800
(1790667811.518259) can1 003#8000800000000800
(1790667811.518486) can0 011#017FA37FF7F0211E
(1790667811.518616) can0 012#0280F07FF8073120
(1790667811.518694) can1 011#017F707FF7FE231C
(1790667811.518738) can0 013#0380007FF7FC221B
(1790667811.518790) can1 012#027FC87FF804211C
(1790667811.518842) can0 014#047FC07FF7F82E20
(1790667811.518920) can1 013#037FE97FF7FF1F1A
(1790667811.518972) can0 015#05800D7FF7FD311F
(1790667811.519033) can1 014#04802E7FF7F92F17
(1790667811.519116) can0 016#0680057FF8002A1C
(1790667811.519157) can1 015#0580137FF7FB211D
(1790667811.519261) can1 016#067FCB7FF803221B
(1790667811.525658) can0 004#8000800000000800
(1790667811.525678) can0 005#8000800000000800
(1790667811.525723) can0 006#8000800000000800
(1790667811.525724) can0 001#8000800000000800
(1790667811.525763) can0 002#8000800000000800
(1790667811.525765) can0 003#8000800000000800
(1790667811.525804) can1 004#8000800000000800
(1790667811.525881) can1 005#8000800000000800
(1790667811.525963) can1 006#8000800000000800
(1790667811.526089) can1 001#8000800000000800
(1790667811.526179) can1 002#8000800000000800
(1790667811.526259) can1 003#8000800000000800
(1790667811.526476) can0 011#017FA37FF802211E
(1790667811.526617) can0 012#0280F07FF8033120
(1790667811.526664) can1 011#017F707FF7FE231C
(1790667811.526715) can0 013#0380007FF7F5221B
(1790667811.526764) can1 012#027FC87FF7FA211C
(1790667811.526843) can0 014#047FC07FF8082E20
(1790667811.526895) can1 013#037FE97FF7FF1F1A
(1790667811.526972) can0 015#05800D7FF802311F
(1790667811.527014) can1 014#04802E7FF7FD2F17
(1790667811.527092) can0 016#0680057FF8052A1C
(1790667811.527146) can1 015#0580137FF7F7211D
(1790667811.527238) can1 016#067FCB7FF801221B
(1790667811.533760) can0 004#8000800000000800
(1790667811.533774) can0 005#8000800000000800
(1790667811.533788) can0 006#8000800000000800
(1790667811.533823) can0 001#8000800000000800
(1790667811.533824) can0 002#8000800000000800
(1790667811.533874) can0 003#8000800000000800
(1790667811.533877) can1 004#8000800000000800
(1790667811.533963) can1 005#8000800000000800
(1790667811.534066) can1 006#8000800000000800
(1790667811.534144) can1 001#8000800000000800
(1790667811.534188) can1 002#8000800000000800
(1790667811.534264) can1 003#8000800000000800
(1790667811.534569) can0 011#017FA37FF7FB211E
(1790667811.534698) can0 012#0280F07FF80C3120
(1790667811.534734) can1 011#017F707FF7FC231C
(1790667811.534815) can0 013#0380007FF7FF221B
(1790667811.534867) can1 012#027FC87FF7FB201C
(1790667811.534945) can0 014#047FC07FF8042E20
(1790667811.534981) can1 013#037FE97FF8001F1A
(1790667811.535077) can0 015#05800D7FF7FF311F
(1790667811.535120) can1 014#04802E7FF8072F17
(1790667811.535182) can0 016#0680057FF7FB2A1C
(1790667811.535218) can1 015#0580137FF7FE211D
(1790667811.535313) can1 016#067FCB7FF7FC221B
(1790667811.541726) can0 004#8000800000000800
(1790667811.541764) can0 005#8000800000000800
(1790667811.541807) can0 006#8000800000000800
(1790667811.541808) can0 001#8000800000000800
(1790667811.541854) can0 002#8000800000000800
(1790667811.541855) can0 003#8000800000000800
(1790667811.541888) can1 004#8000800000000800
(1790667811.541970) can1 005#8000800000000800
(1790667811.542056) can1 006#8000800000000800
(1790667811.542131) can1 001#8000800000000800
(1790667811.542215) can1 002#8000800000000800
(1790667811.542305) can1 003#8000800000000800
(1790667811.542572) can0 011#017FA37FF802211E
(1790667811.542683) can0 012#0280F07FF7FC3120
(1790667811.542730) can1 011#017F707FF805231C
(1790667811.542815) can0 013#0380007FF7F6221B
(1790667811.542868) can1 012#027FC87FF802211C
(1790667811.542945) can0 014#047FC07FF8042E20
(1790667811.542982) can1 013#037FE97FF7FB1F1A
(1790667811.543077) can0 015#05800D7FF801311F
(1790667811.543120) can1 014#04802E7FF7FE2F17
(1790667811.543184) can0 016#0680057FF7FC2A1C
(1790667811.543218) can1 015#0580137FF7FF211D
(1790667811.543339) can1 016#067FCB7FF804221B
(1790667811.549766) can0 004#8000800000000800
(1790667811.549795) can0 005#8000800000000800
(1790667811.549844) can0 006#8000800000000800
(1790667811.549845) can0 001#8000800000000800
(1790667811.549887) can0 002#8000800000000800
(1790667811.549889) can0 003#8000800000000800
(1790667811.549921) can1 004#8000800000000800
(1790667811.549979) can1 005#8000800000000800
(1790667811.550044) can1 006#8000800000000800
(1790667811.550120) can1 001#8000800000000800
(1790667811.550207) can1 002#8000800000000800
(1790667811.550287) can1 003#8000800000000800
(1790667811.550634) can0 011#017FA37FF804211E
(1790667811.550711) can0 012#0280F07FF7FC3120
(1790667811.550790) can1 011#017F707FF802231C
(1790667811.550841) can0 013#0380007FF7F8221B
(1790667811.550893) can1 012#027FC87FF804211C
(1790667811.550971) can0 014#047FC07FF8032E20
(1790667811.551010) can1 013#037FE97FF8001F1A
(1790667811.551093) can0 015#05800D7FF7FD311F
(1790667811.551136) can1 014#04802E7FF7FD2F17
(1790667811.551211) can0 016#0680057FF80C2A1C
(1790667811.551256) can1 015#0580137FF7F3211D
(1790667811.551371) can1 016#067FCB7FF801221B
(1790667811.557680) can0 004#8000800000000800
(1790667811.557725) can0 005#8000800000000800
(1790667811.557726) can0 006#8000800000000800
(1790667811.557754) can0 001#8000800000000800
(1790667811.557797) can0 002#8000800000000800
(1790667811.557798) can0 003#8000800000000800
(1790667811.557848) can1 004#8000800000000800
(1790667811.557933) can1 005#8000800000000800
(1790667811.558015) can1 006#8000800000000800
(1790667811.558095) can1 001#8000800000000800
(1790667811.558178) can1 002#8000800000000800
(1790667811.558260) can1 003#8000800000000800
(1790667811.558511) can0 011#017FA38007F1211E
(1790667811.558641) can0 012#0280F07FF7FD3120
(1790667811.558693) can1 011#017F707FF80C231C
(1790667811.558761) can0 013#0380007FF7F8221B
(1790667811.558815) can1 012#027FC87FF80A211C
(1790667811.558894) can0 014#047FC07FF7F32E20
(1790667811.558929) can1 013#037FE97FF7FC1F1A
(1790667811.559011) can0 015#05800D7FF806311F
(1790667811.559091) can1 014#04802E7FF7FE2F17
(1790667811.559136) can0 016#0680057FF8002A1C
(1790667811.559180) can1 015#0580137FF7FB211D
(1790667811.559289) can1 016#067FCB7FF7FE221B
(1790667811.565691) can0 004#8000800000000800
(1790667811.565738) can0 005#8000800000000800
(1790667811.565748) can0 006#8000800000000800
(1790667811.565749) can0 001#8000800000000800
(1790667811.565769) can0 002#8000800000000800
(1790667811.565801) can0 003#8000800000000800
(1790667811.565854) can1 004#8000800000000800
(1790667811.565938) can1 005#8000800000000800
(1790667811.566022) can1 006#8000800000000800
(1790667811.566103) can1 001#8000800000000800
(1790667811.566182) can1 002#8000800000000800
(1790667811.566261) can1 003#8000800000000800
(1790667811.566513) can0 011#017FA37FF807211E
(1790667811.566642) can0 012#0280F07FF7FE3120
(1790667811.566694) can1 011#017F707FF80E231C
(1790667811.566761) can0 013#0380007FF807221B
(1790667811.566816) can1 012#027FC87FF807211C
(1790667811.566894) can0 014#047FC07FF7FA2E20
(1790667811.566938) can1 013#037FE97FF7FE1F1A
(1790667811.567012) can0 015#05800D7FF801311F
(1790667811.567091) can1 014#04802E7FF8032F17
(1790667811.567136) can0 016#0680057FF8072A1C
(1790667811.567181) can1 015#0580137FF806211D
(1790667811.567290) can1 016#067FCB7FF800221B
(1790667811.573689) can0 004#8000800000000800
(1790667811.573692) can0 005#8000800000000800
(1790667811.573731) can0 006#8000800000000800
(1790667811.573732) can0 001#8000800000000800
(1790667811.573766) can0 002#8000800000000800
(1790667811.573801) can0 003#8000800000000800
(1790667811.573849) can1 004#8000800000000800
(1790667811.573933) can1 005#8000800000000800
(1790667811.574017) can1 006#8000800000000800
(1790667811.574095) can1 001#8000800000000800
(1790667811.574182) can1 002#8000800000000800
(1790667811.574261) can1 003#8000800000000800
(1790667811.574493) can0 011#017FA37FF7FF211E
(1790667811.574614) can0 012#0280F07FF8023120
(1790667811.574689) can1 011#017F707FF801231C
(1790667811.574735) can0 013#0380007FF80E221B
(1790667811.574791) can1 012#027FC87FF7F2211C
(1790667811.574843) can0 014#047FC07FF8092E20
(1790667811.574919) can1 013#037FE97FF7FA1F1A
(1790667811.574969) can0 015#05800D7FF801311F
(1790667811.575039) can1 014#04802E7FF7F92F17
(1790667811.575154) can0 016#0680057FF8012A1C
(1790667811.575163) can1 015#0580137FF7FB211D
(1790667811.575263) can1 016#067FCB7FF7FB221B
(1790667811.581715) can0 004#8000800000000800
(1790667811.581780) can0 005#8000800000000800
(1790667811.581781) can0 006#8000800000000800
(1790667811.581817) can0 001#8000800000000800
(1790667811.581818) can0 002#8000800000000800
(1790667811.581872) can1 004#8000800000000800
(1790667811.581834) can0 003#8000800000000800
(1790667811.581973) can1 005#8000800000000800
(1790667811.582053) can1 006#8000800000000800
(1790667811.582147) can1 001#8000800000000800
(1790667811.582242) can1 002#8000800000000800
(1790667811.582326) can1 003#8000800000000800
(1790667811.582520) can0 011#017FA37FF7FA211E
(1790667811.582648) can0 012#0280F07FF7F93120
(1790667811.582726) can1 011#017F707FF7FE231C
(1790667811.582781) can0 013#0380007FF809221B
(1790667811.582805) can1 012#027FC87FF807211C
