(1790666269.772553) can0 004#FFFFFFFFFFFFFFFD
(1790666269.772598) can0 005#FFFFFFFFFFFFFFFD
(1790666269.772598) can0 006#FFFFFFFFFFFFFFFD
(1790666269.772638) can0 001#FFFFFFFFFFFFFFFD
(1790666269.772638) can0 002#FFFFFFFFFFFFFFFD
(1790666269.772668) can0 003#FFFFFFFFFFFFFFFD
(1790666269.772720) can1 004#FFFFFFFFFFFFFFFD
(1790666269.772721) can1 005#FFFFFFFFFFFFFFFD
(1790666269.772751) can1 006#FFFFFFFFFFFFFFFD
(1790666269.772799) can1 001#FFFFFFFFFFFFFFFD
(1790666269.772800) can1 002#FFFFFFFFFFFFFFFD
(1790666269.772800) can1 003#FFFFFFFFFFFFFFFD
(1790666269.772832) can0 004#8000800000000800
(1790666269.772877) can0 005#8000800000000800
(1790666269.772878) can0 006#8000800000000800
(1790666269.772916) can0 001#8000800000000800
(1790666269.772917) can0 002#8000800000000800
(1790666269.772952) can1 004#8000800000000800
(1790666269.772953) can1 005#8000800000000800
(1790666269.772991) can1 006#8000800000000800
(1790666269.772992) can1 001#8000800000000800
(1790666269.773028) can0 003#8000800000000800
(1790666269.773072) can1 002#8000800000000800
(1790666269.773073) can1 003#8000800000000800
(1790666269.774153) can0 011#0180607FF8001F1C
(1790666269.774279) can0 011#0180607FF8011F1C
(1790666269.774317) can1 011#017EC97FF7FD211B
(1790666269.774381) can0 012#0281137FF7FD2D1E
(1790666269.774430) can1 011#017EC97FF7FE211B
(1790666269.774505) can0 012#0281137FF7FD2D1E
(1790666269.774557) can1 012#027F677FF7FA1F1B
(1790666269.774636) can0 013#0380377FF80D211B
(1790666269.774673) can1 012#027F677FF7F41F1B
(1790666269.774756) can0 004#8000800000000800
(1790666269.774795) can0 005#8000800000000800
(1790666269.774795) can0 006#8000800000000800
(1790666269.774833) can0 001#8000800000000800
(1790666269.774876) can0 002#8000800000000800
(1790666269.774877) can0 003#8000800000000800
(1790666269.774911) can1 004#8000800000000800
(1790666269.774953) can1 005#8000800000000800
(1790666269.774953) can1 006#8000800000000800
(1790666269.774996) can1 001#8000800000000800
(1790666269.775035) can1 002#8000800000000800
(1790666269.775036) can1 003#8000800000000800
(1790666269.775605) can0 011#0180607FF8011F1C
(1790666269.775735) can0 012#0281137FF7FE2D1E
(1790666269.775781) can1 011#017EC97FF7FF211B
(1790666269.775859) can0 013#0380377FF808211B
(1790666269.775894) can1 012#027F677FF7ED1F1B
(1790666269.775971) can0 014#04802F7FF8032A1E
(1790666269.776025) can1 013#037FFD7FF8071E1A
(1790666269.776074) can0 014#04802F7FF8012A1E
(1790666269.776127) can1 014#04805D7FF7FC2B15
(1790666269.776204) can0 014#04802F7FF8012A1E
(1790666269.776256) can1 014#04805D7FF7FC2B15
(1790666269.776336) can0 015#057FD47FF8012E1D
(1790666269.776376) can1 014#04805D7FF7FD2C15
(1790666269.776469) can0 015#057FD47FF8012D1D
(1790666269.776512) can1 015#057F4A7FF8061F1B
(1790666269.776569) can0 015#057FD47FF7FE2E1D
(1790666269.776612) can1 015#057F4A7FF8031F1B
(1790666269.776673) can0 016#0680297FF803271B
(1790666269.776725) can1 015#057F4A7FF8021F1B
(1790666269.776798) can0 016#0680297FF803271B
(1790666269.776841) can0 004#8000800000000800
(1790666269.776842) can0 005#8000800000000800
(1790666269.776878) can1 016#067FEB7FF7FE211A
(1790666269.776927) can0 006#8000800000000800
(1790666269.776927) can0 001#8000800000000800
(1790666269.776928) can0 002#8000800000000800
(1790666269.777000) can0 003#8000800000000800
(1790666269.777001) can1 004#8000800000000800
(1790666269.777035) can1 005#8000800000000800
(1790666269.777077) can1 006#8000800000000800
(1790666269.777077) can1 001#8000800000000800
(1790666269.777117) can1 002#8000800000000800
(1790666269.777158) can1 003#8000800000000800
(1790666269.777787) can0 011#0180607FF8001F1C
(1790666269.777903) can0 012#0281137FF7FE2D1E
(1790666269.777955) can1 011#017EC97FF7FA211B
(1790666269.778047) can0 013#0380377FF807211B
(1790666269.778089) can1 012#027F677FF7EC1F1B
(1790666269.778148) can0 014#04802F7FF7FD2A1E
(1790666269.778200) can1 013#037FFD7FF8031E1A
(1790666269.778252) can0 015#057FD47FF7FF2E1D
(1790666269.778304) can1 014#04805D7FF7FF2B15
(1790666269.778382) can0 016#0680297FF80C271B
(1790666269.778430) can1 015#057F4A7FF8041F1B
(1790666269.778547) can1 016#067FEB7FF7F8211A
(1790666269.778996) can0 004#8000800000000800
(1790666269.778996) can0 005#8000800000000800
(1790666269.779027) can0 006#8000800000000800
(1790666269.779028) can0 001#8000800000000800
(1790666269.779071) can0 002#8000800000000800
(1790666269.779072) can0 003#8000800000000800
(1790666269.779108) can1 004#8000800000000800
(1790666269.779165) can1 005#8000800000000800
(1790666269.779165) can1 006#8000800000000800
(1790666269.779166) can1 001#8000800000000800
(1790666269.779194) can1 002#8000800000000800
(1790666269.779252) can0 004#8000800000000800
(1790666269.779252) can1 003#8000800000000800
(1790666269.779253) can0 005#8000800000000800
(1790666269.779267) can0 006#8000800000000800
(1790666269.779268) can0 001#8000800000000800
(1790666269.779308) can1 004#8000800000000800
(1790666269.779351) can1 005#8000800000000800
(1790666269.779352) can1 006#8000800000000800
(1790666269.779390) can0 002#8000800000000800
(1790666269.779390) can1 001#8000800000000800
(1790666269.779431) can0 003#8000800000000800
(1790666269.779431) can0 004#8000800000000800
(1790666269.779472) can0 005#8000800000000800
(1790666269.779473) can0 006#8000800000000800
(1790666269.779511) can0 001#8000800000000800
(1790666269.779559) can1 002#8000800000000800
(1790666269.779560) can1 003#8000800000000800
(1790666269.779560) can1 004#8000800000000800
(1790666269.779594) can1 005#8000800000000800
(1790666269.779595) can1 006#8000800000000800
(1790666269.779625) can1 001#8000800000000800
(1790666269.779665) can0 002#8000800000000800
(1790666269.779715) can0 003#8000800000000800
(1790666269.779716) can1 002#8000800000000800
(1790666269.779716) can1 003#8000800000000800
(1790666269.781309) can0 011#0180607FF7FE1F1C
(1790666269.781425) can0 011#0180607FF7FE1F1C
(1790666269.781469) can1 011#017EC97FF7F7211B
(1790666269.781551) can0 011#0180607FF7FE1F1C
(1790666269.781595) can1 011#017EC97FF7F9211B
(1790666269.781655) can0 012#0281137FF7FE2D1E
(1790666269.781709) can1 011#017EC97FF7FA211B
(1790666269.781775) can0 012#0281137FF7FF2D1E
(1790666269.781827) can1 012#027F677FF7EF1F1B
(1790666269.781906) can0 012#0281137FF8072D1E
(1790666269.781941) can1 012#027F677FF7EB1F1B
(1790666269.782010) can0 013#0380377FF804211B
(1790666269.782049) can1 012#027F677FF7EB1F1B
(1790666269.782124) can0 013#0380377FF807211B
(1790666269.782180) can1 013#037FFD7FF8021E1A
(1790666269.782254) can0 013#0380377FF805211B
(1790666269.782297) can1 013#037FFD7FF8141E1A
(1790666269.782382) can0 014#04802F7FF7FF2A1E
(1790666269.782428) can1 013#037FFD7FF8141E1A
(1790666269.782484) can0 014#04802F7FF7FF2A1E
(1790666269.782548) can1 014#04805D7FF7FF2B15
(1790666269.782623) can0 014#04802F7FF7FF2A1E
(1790666269.782667) can1 014#04805D7FF7FE2B15
(1790666269.782727) can0 015#057FD47FF7FA2E1D
(1790666269.782772) can1 014#04805D7FF7FE2B15
(1790666269.782852) can0 015#057FD47FF7FB2E1D
(1790666269.782896) can1 015#057F4A7FF7F11F1B
(1790666269.782954) can0 015#057FD47FF7FB2E1D
(1790666269.783006) can1 015#057F4A7FF7F41F1B
(1790666269.783084) can0 016#0680297FF80F271B
(1790666269.783136) can1 015#057F4A7FF7F41F1B
(1790666269.783194) can0 016#0680297FF80F271B
(1790666269.783246) can1 016#067FEB7FF7FD211A
(1790666269.783324) can0 016#0680297FF80C271B
(1790666269.783376) can1 016#067FEB7FF800211A
(1790666269.783482) can1 016#067FEB7FF800211A
(1790666269.787226) can0 004#8000800000000800
(1790666269.787265) can0 005#8000800000000800
(1790666269.787265) can0 006#8000800000000800
(1790666269.787295) can0 001#8000800000000800
(1790666269.787343) can0 002#8000800000000800
(1790666269.787344) can0 003#8000800000000800
(1790666269.787380) can1 004#8000800000000800
(1790666269.787429) can1 005#8000800000000800
(1790666269.787430) can1 006#8000800000000800
(1790666269.787430) can1 001#8000800000000800
(1790666269.787501) can1 002#8000800000000800
(1790666269.787502) can1 003#8000800000000800
(1790666269.788074) can0 011#0180607FF7FE1F1C
(1790666269.788175) can0 012#0281137FF8032D1E
(1790666269.788227) can1 011#017EC97FF7FC211B
(1790666269.788305) can0 013#0380377FF7FE211B
(1790666269.788356) can1 012#027F677FF8021F1B
(1790666269.788427) can0 014#04802F7FF8022A1E
(1790666269.788461) can1 013#037FFD7FF7F61E1A
(1790666269.788548) can0 015#057FD47FF7FF2E1D
(1790666269.788591) can1 014#04805D7FF7FE2B15
(1790666269.788651) can0 016#0680297FF802271B
(1790666269.788702) can1 015#057F4A7FF8011F1B
(1790666269.788827) can1 016#067FEB7FF7FB211A
(1790666269.795244) can0 004#8000800000000800
(1790666269.795285) can0 005#8000800000000800
(1790666269.795286) can0 006#8000800000000800
(1790666269.795321) can0 001#8000800000000800
(1790666269.795363) can0 002#8000800000000800
(1790666269.795400) can0 003#8000800000000800
(1790666269.795401) can1 004#8000800000000800
(1790666269.795447) can1 005#8000800000000800
(1790666269.795448) can1 006#8000800000000800
(1790666269.795486) can1 001#8000800000000800
(1790666269.795487) can1 002#8000800000000800
(1790666269.795518) can1 003#8000800000000800
(1790666269.796119) can0 011#0180607FF7FF1F1C
(1790666269.796201) can0 012#0281137FF8042D1E
(1790666269.796253) can1 011#017EC97FF7FF211B
(1790666269.796331) can0 013#0380377FF803211B
(1790666269.796383) can1 012#027F677FF7FA1F1B
(1790666269.796463) can0 014#04802F7FF8042A1E
(1790666269.796507) can1 013#037FFD7FF7FB1E1A
(1790666269.796571) can0 015#057FD47FF8012E1D
(1790666269.796623) can1 014#04805D7FF7FE2B15
(1790666269.796675) can0 016#0680297FF801271B
(1790666269.796727) can1 015#057F4A7FF7FE1F1B
(1790666269.796854) can1 016#067FEB7FF7FC211A
(1790666269.803249) can0 004#8000800000000800
(1790666269.803288) can0 005#8000800000000800
(1790666269.803326) can0 006#8000800000000800
(1790666269.803326) can0 001#8000800000000800
(1790666269.803369) can0 002#8000800000000800
(1790666269.803370) can0 003#8000800000000800
(1790666269.803407) can1 004#8000800000000800
(1790666269.803448) can1 005#8000800000000800
(1790666269.803449) can1 006#8000800000000800
(1790666269.803490) can1 001#8000800000000800
(1790666269.803527) can1 002#8000800000000800
(1790666269.803529) can1 003#8000800000000800
(1790666269.804125) can0 011#0180607FF7FE1F1C
(1790666269.804229) can0 012#0281137FF7FE2D1E
(1790666269.804273) can1 011#017EC97FF802211B
(1790666269.804328) can0 013#0380377FF809211B
(1790666269.804378) can1 012#027F677FF7FA1F1B
(1790666269.804448) can0 014#04802F7FF8022A1E
(1790666269.804509) can1 013#037FFD7FF7F61E1A
(1790666269.804579) can0 015#057FD47FF7FC2E1D
(1790666269.804628) can1 014#04805D7FF7FF2B15
(1790666269.804678) can0 016#0680297FF7F9271B
(1790666269.804728) can1 015#057F4A7FF7FC1F1B
(1790666269.804860) can1 016#067FEB7FF7FF211A
(1790666269.811268) can0 004#8000800000000800
(1790666269.811297) can0 005#8000800000000800
(1790666269.811332) can0 006#8000800000000800
(1790666269.811332) can0 001#8000800000000800
(1790666269.811377) can0 002#8000800000000800
(1790666269.811377) can0 003#8000800000000800
(1790666269.811414) can1 004#8000800000000800
(1790666269.811450) can1 005#8000800000000800
(1790666269.811452) can1 006#8000800000000800
(1790666269.811493) can1 001#8000800000000800
(1790666269.811530) can1 002#8000800000000800
(1790666269.811531) can1 003#8000800000000800
(1790666269.812118) can0 011#0180607FF7FF1F1C
(1790666269.812232) can0 012#0281137FF8052D1E
(1790666269.812275) can1 011#017EC97FF7FF211B
(1790666269.812337) can0 013#0380377FF804211B
(1790666269.812386) can1 012#027F677FF8001F1B
(1790666269.812466) can0 014#04802F7FF7FE2A1E
(1790666269.812510) can1 013#037FFD7FF7F61E1A
(1790666269.812575) can0 015#057FD47FF7FB2E1D
(1790666269.812626) can1 014#04805D7FF7FF2B15
(1790666269.812678) can0 016#0680297FF802271B
(1790666269.812730) can1 015#057F4A7FF8051F1B
(1790666269.812858) can1 016#067FEB7FF7FA211A
(1790666269.819291) can0 004#8000800000000800
(1790666269.819312) can0 005#8000800000000800
(1790666269.819387) can0 006#8000800000000800
(1790666269.819388) can0 001#8000800000000800
(1790666269.819394) can0 002#8000800000000800
(1790666269.819394) can0 003#8000800000000800
(1790666269.819441) can1 004#8000800000000800
(1790666269.819442) can1 005#8000800000000800
(1790666269.819477) can1 006#8000800000000800
(1790666269.819477) can1 001#8000800000000800
(1790666269.819511) can1 002#8000800000000800
(1790666269.819555) can1 003#8000800000000800
(1790666269.820148) can0 011#0180607FF7FF1F1C
(1790666269.820229) can0 012#0281137FF7F82D1E
(1790666269.820281) can1 011#017EC97FF7FC211B
(1790666269.820359) can0 013#0380377FF7FE211B
(1790666269.820403) can1 012#027F677FF7FB1F1B
(1790666269.820492) can0 014#04802F7FF7FF2A1E
(1790666269.820535) can1 013#037FFD7FF7F61E1A
(1790666269.820587) can0 015#057FD47FF7FC2E1D
(1790666269.820640) can1 014#04805D7FF7FE2B15
(1790666269.820725) can0 016#0680297FF7FF271B
(1790666269.820768) can1 015#057F4A7FE8091F1B
(1790666269.820883) can1 016#067FEB7FF7FE211A
(1790666269.827255) can0 004#8000800000000800
(1790666269.827291) can0 005#8000800000000800
(1790666269.827330) can0 006#8000800000000800
(1790666269.827330) can0 001#8000800000000800
(1790666269.827373) can0 002#8000800000000800
(1790666269.827374) can0 003#8000800000000800
(1790666269.827411) can1 004#8000800000000800
(1790666269.827450) can1 005#8000800000000800
(1790666269.827451) can1 006#8000800000000800
(1790666269.827496) can1 001#8000800000000800
(1790666269.827529) can1 002#8000800000000800
(1790666269.827530) can1 003#8000800000000800
(1790666269.828103) can0 011#0180607FF8001F1C
(1790666269.828205) can0 012#0281137FF7F72D1E
(1790666269.828258) can1 011#017EC97FF800211B
(1790666269.828336) can0 013#0380377FF7FA211B
(1790666269.828388) can1 012#027F677FF80A1F1B
(1790666269.828469) can0 014#04802F7FF7FD2A1E
(1790666269.828513) can1 013#037FFD7FF7ED1E1A
(1790666269.828564) can0 015#057FD47FF7FB2E1D
(1790666269.828616) can1 014#04805D7FF7FD2B15
(1790666269.828687) can0 016#0680297FF7F3271B
(1790666269.828733) can1 015#057F4A7FF7FF1F1B
(1790666269.828862) can1 016#067FEB7FF7FF211A
(1790666269.835270) can0 004#8000800000000800
(1790666269.835292) can0 005#8000800000000800
(1790666269.835334) can0 006#8000800000000800
(1790666269.835335) can0 001#8000800000000800
(1790666269.835381) can0 002#8000800000000800
(1790666269.835381) can0 003#8000800000000800
(1790666269.835414) can1 004#8000800000000800
(1790666269.835455) can1 005#8000800000000800
(1790666269.835456) can1 006#8000800000000800
(1790666269.835503) can1 001#8000800000000800
(1790666269.835531) can1 002#8000800000000800
(1790666269.835574) can1 003#8000800000000800
(1790666269.836122) can0 011#0180607FF8001F1C
(1790666269.836234) can0 012#0281137FF7FD2D1E
(1790666269.836281) can1 011#017EC97FF7FF211B
(1790666269.836337) can0 013#0380377FF7FE211B
(1790666269.836393) can1 012#027F677FF8021F1B
(1790666269.836470) can0 014#04802F7FF7F12A1E
(1790666269.836513) can1 013#037FFD7FF7EA1E1A
(1790666269.836578) can0 015#057FD47FF7FE2E1D
(1790666269.836629) can1 014#04805D7FF7FD2B15
(1790666269.836708) can0 016#0680297FF800271B
(1790666269.836750) can1 015#057F4A8008061F1B
(1790666269.836860) can1 016#067FEB7FF802211A
(1790666269.843263) can0 004#8000800000000800
(1790666269.843295) can0 005#8000800000000800
(1790666269.843332) can0 006#8000800000000800
(1790666269.843332) can0 001#8000800000000800
(1790666269.843376) can0 002#8000800000000800
(1790666269.843377) can0 003#8000800000000800
(1790666269.843414) can1 004#8000800000000800
(1790666269.843453) can1 005#8000800000000800
(1790666269.843454) can1 006#8000800000000800
(1790666269.843499) can1 001#8000800000000800
(1790666269.843530) can1 002#8000800000000800
(1790666269.843573) can1 003#8000800000000800
(1790666269.844125) can0 011#0180607FF7FE1F1C
(1790666269.844233) can0 012#0281137FF8062D1E
(1790666269.844276) can1 011#017EC97FF7FF211B
(1790666269.844337) can0 013#0380377FF800211B
(1790666269.844388) can1 012#027F677FF8011F1B
(1790666269.844459) can0 014#04802F7FF7FC2A1E
(1790666269.844512) can1 013#037FFD7FF7F61E1A
(1790666269.844575) can0 015#057FD47FF8002E1D
(1790666269.844615) can1 014#04805D7FF7FC2B15
(1790666269.844681) can0 016#0680297FF7FC271B
(1790666269.844731) can1 015#057F4A7FF8021F1B
(1790666269.844861) can1 016#067FEB7FF7F8211A
(1790666269.851363) can0 004#8000800000000800
(1790666269.851397) can0 005#8000800000000800
(1790666269.851440) can0 006#8000800000000800
(1790666269.851440) can0 001#8000800000000800
(1790666269.851485) can0 002#8000800000000800
(1790666269.851485) can0 003#8000800000000800
(1790666269.851523) can1 004#8000800000000800
(1790666269.851524) can1 005#8000800000000800
(1790666269.851558) can1 006#8000800000000800
(1790666269.851597) can1 001#8000800000000800
(1790666269.851638) can1 002#8000800000000800
(1790666269.851639) can1 003#8000800000000800
(1790666269.852212) can0 011#0180607FF7FD1F1C
(1790666269.852313) can0 012#0281137FF8092D1E
(1790666269.852365) can1 011#017EC97FF7FE211B
(1790666269.852438) can0 013#0380377FF800211B
(1790666269.852496) can1 012#027F678008041F1B
(1790666269.852558) can0 014#04802F7FF7F52A1E
(1790666269.852607) can1 013#037FFD7FF7FC1E1A
(1790666269.852686) can0 015#057FD47FF7FC2E1D
(1790666269.852737) can1 014#04805D7FF7FE2B15
(1790666269.852808) can0 016#0680297FF7FC271B
(1790666269.852844) can1 015#057F4A7FF7F91F1B
(1790666269.852967) can1 016#067FEB7FF7FF211A
(1790666269.859384) can0 004#8000800000000800
(1790666269.859393) can0 005#8000800000000800
(1790666269.859417) can0 006#8000800000000800
(1790666269.859418) can0 001#8000800000000800
(1790666269.859466) can0 002#8000800000000800
(1790666269.859503) can0 003#8000800000000800
(1790666269.859504) can1 004#8000800000000800
(1790666269.859532) can1 005#8000800000000800
(1790666269.859575) can1 006#8000800000000800
(1790666269.859576) can1 001#8000800000000800
(1790666269.859617) can1 002#8000800000000800
(1790666269.859618) can1 003#8000800000000800
(1790666269.860193) can0 011#0180607FF7FE1F1C
(1790666269.860316) can0 012#0281137FF7F92D1E
(1790666269.860368) can1 011#017EC97FF7FB211B
(1790666269.860416) can0 013#0380377FF801211B
(1790666269.860498) can1 012#027F677FF8031F1B
(1790666269.860560) can0 014#04802F7FF7FC2A1E
(1790666269.860610) can1 013#037FFD7FF8071E1A
(1790666269.860663) can0 015#057FD47FF7FD2E1D
(1790666269.860714) can1 014#04805D7FF7FD2B15
(1790666269.860782) can0 016#0680297FF7FD271B
(1790666269.860840) can1 015#057F4A7FF8021F1B
(1790666269.860972) can1 016#067FEB7FF7FD211A
(1790666269.867242) can0 004#8000800000000800
(1790666269.867280) can0 005#8000800000000800
(1790666269.867281) can0 006#8000800000000800
(1790666269.867316) can0 001#8000800000000800
(1790666269.867358) can0 002#8000800000000800
(1790666269.867359) can0 003#8000800000000800
(1790666269.867402) can1 004#8000800000000800
(1790666269.867403) can1 005#8000800000000800
(1790666269.867437) can1 006#8000800000000800
(1790666269.867485) can1 001#8000800000000800
(1790666269.867516) can1 002#8000800000000800
(1790666269.867559) can1 003#8000800000000800
(1790666269.868117) can0 011#0180607FF7FE1F1C
(1790666269.868207) can0 012#0281137FF7FF2D1E
(1790666269.868249) can1 011#017EC97FF803211B
(1790666269.868336) can0 013#0380377FF7F9211B
(1790666269.868379) can1 012#027F677FF7FA1F1B
(1790666269.868435) can0 014#04802F7FF8022A1E
(1790666269.868515) can1 013#037FFD7FF8041E1A
(1790666269.868564) can0 015#057FD47FF8002E1D
(1790666269.868601) can1 014#04805D7FF7FE2B15
(1790666269.868668) can0 016#0680297FF7F2271B
(1790666269.868732) can1 015#057F4A7FF7FE1F1B
(1790666269.868838) can1 016#067FEB7FF7FB211A
(1790666269.875258) can0 004#8000800000000800
(1790666269.875298) can0 005#8000800000000800
(1790666269.875336) can0 006#8000800000000800
(1790666269.875337) can0 001#8000800000000800
(1790666269.875379) can0 002#8000800000000800
(1790666269.875380) can0 003#8000800000000800
(1790666269.875417) can1 004#8000800000000800
(1790666269.875456) can1 005#8000800000000800
(1790666269.875456) can1 006#8000800000000800
(1790666269.875500) can1 001#8000800000000800
(1790666269.875533) can1 002#8000800000000800
(1790666269.875578) can1 003#8000800000000800
(1790666269.876128) can0 011#0180607FF8001F1C
(1790666269.876212) can0 012#0281137FF8042D1E
(1790666269.876264) can1 011#017EC97FF801211B
(1790666269.876343) can0 013#0380377FF802211B
(1790666269.876394) can1 012#027F677FF7F91F1B
(1790666269.876475) can0 014#04802F7FF7F02A1E
(1790666269.876518) can1 013#037FFD7FF7EF1E1A
(1790666269.876570) can0 015#057FD47FF7FF2E1D
(1790666269.876621) can1 014#04805D7FF7FD2B15
(1790666269.876686) can0 016#0680297FF800271B
(1790666269.876736) can1 015#057F4A80080A1F1B
(1790666269.876867) can1 016#067FEB7FF7FC211A
(1790666269.883386) can0 004#8000800000000800
(1790666269.883394) can0 005#8000800000000800
(1790666269.883417) can0 006#8000800000000800
(1790666269.883418) can0 001#8000800000000800
(1790666269.883458) can0 002#8000800000000800
(1790666269.883495) can0 003#8000800000000800
(1790666269.883536) can1 004#8000800000000800
(1790666269.883537) can1 005#8000800000000800
(1790666269.883585) can1 006#8000800000000800
(1790666269.883585) can1 001#8000800000000800
(1790666269.883613) can1 002#8000800000000800
(1790666269.883659) can1 003#8000800000000800
(1790666269.884197) can0 011#0180607FF7FF1F1C
(1790666269.884319) can0 012#0281137FF8012D1E
(1790666269.884371) can1 011#017EC97FF7FD211B
(1790666269.884418) can0 013#0380377FF7F1211B
(1790666269.884494) can1 012#027F677FF7FC1F1B
(1790666269.884546) can0 014#04802F7FF7FD2A1E
(1790666269.884610) can1 013#037FFD7FF8041E1A
(1790666269.884663) can0 015#057FD47FF7FE2E1D
(1790666269.884745) can1 014#04805D7FF7FD2B15
(1790666269.884789) can0 016#0680297FE7EE271B
(1790666269.884841) can1 015#057F4A7FF8051F1B
(1790666269.884974) can1 016#067FEB7FF805211A
(1790666269.891275) can0 004#8000800000000800
(1790666269.891306) can0 005#8000800000000800
(1790666269.891342) can0 006#8000800000000800
(1790666269.891342) can0 001#8000800000000800
(1790666269.891378) can0 002#8000800000000800
(1790666269.891428) can0 003#8000800000000800
(1790666269.891429) can1 004#8000800000000800
(1790666269.891460) can1 005#8000800000000800
(1790666269.891461) can1 006#8000800000000800
(1790666269.891500) can1 001#8000800000000800
(1790666269.891535) can1 002#8000800000000800
(1790666269.891576) can1 003#8000800000000800
(1790666269.892141) can0 011#0180607FF8001F1C
(1790666269.892219) can0 012#0281137FF8012D1E
(1790666269.892269) can1 011#017EC97FF7FF211B
(1790666269.892344) can0 013#0380377FF7F3211B
(1790666269.892394) can1 012#027F678007FE1F1B
(1790666269.892464) can0 014#04802F7FF7FF2A1E
(1790666269.892524) can1 013#037FFD7FF8181E1A
(1790666269.892584) can0 015#057FD47FF8062E1D
(1790666269.892635) can1 014#04805D7FF7FB2B15
(1790666269.892714) can0 016#0680297FF802271B
(1790666269.892756) can1 015#057F4A7FE7FC1F1B
(1790666269.892867) can1 016#067FEB7FF807211A
(1790666269.899269) can0 004#8000800000000800
(1790666269.899301) can0 005#8000800000000800
(1790666269.899340) can0 006#8000800000000800
(1790666269.899340) can0 001#8000800000000800
(1790666269.899383) can0 002#8000800000000800
(1790666269.899383) can0 003#8000800000000800
(1790666269.899420) can1 004#8000800000000800
(1790666269.899460) can1 005#8000800000000800
(1790666269.899460) can1 006#8000800000000800
(1790666269.899503) can1 001#8000800000000800
(1790666269.899539) can1 002#8000800000000800
(1790666269.899539) can1 003#8000800000000800
(1790666269.900134) can0 011#0180607FF8011F1C
(1790666269.900215) can0 012#0281137FF80A2D1E
(1790666269.900267) can1 011#017EC97FF7FF211B
(1790666269.900346) can0 013#0380377FF7FF211B
(1790666269.900397) can1 012#027F677FF8031F1B
(1790666269.900477) can0 014#04802F7FF8012A1E
(1790666269.900521) can1 013#037FFD7FF7F51E1A
(1790666269.900600) can0 015#057FD47FF7FE2E1D
(1790666269.900643) can1 014#04805D7FF7FC2B15
(1790666269.900710) can0 016#0680297FF7F6271B
(1790666269.900754) can1 015#057F4A7FF7F31F1B
(1790666269.900869) can1 016#067FEB7FF7FD211A
(1790666269.907267) can0 004#8000800000000800
(1790666269.907302) can0 005#8000800000000800
(1790666269.907341) can0 006#8000800000000800
(1790666269.907341) can0 001#8000800000000800
(1790666269.907384) can0 002#8000800000000800
(1790666269.907384) can0 003#8000800000000800
(1790666269.907421) can1 004#8000800000000800
(1790666269.907463) can1 005#8000800000000800
(1790666269.907463) can1 006#8000800000000800
(1790666269.907503) can1 001#8000800000000800
(1790666269.907540) can1 002#8000800000000800
(1790666269.907584) can1 003#8000800000000800
(1790666269.908118) can0 011#0180607FF7FF1F1C
(1790666269.908221) can0 012#0281137FF7FC2D1E
(1790666269.908271) can1 011#017EC97FF800211B
(1790666269.908348) can0 013#0380377FF804211B
(1790666269.908399) can1 012#027F678007FB1F1B
(1790666269.908480) can0 014#04802F7FF7FD2A1E
(1790666269.908523) can1 013#037FFD7FF7FB1E1A
(1790666269.908576) can0 015#057FD47FF7FE2E1D
(1790666269.908628) can1 014#04805D7FF7FE2B15
(1790666269.908692) can0 016#0680297FF809271B
(1790666269.908744) can1 015#057F4A7FF7FF1F1B
(1790666269.908871) can1 016#067FEB7FF805211A
(1790666269.915216) can0 004#8000800000000800
(1790666269.915258) can0 005#8000800000000800
(1790666269.915258) can0 006#8000800000000800
(1790666269.915296) can0 001#8000800000000800
(1790666269.915297) can0 002#8000800000000800
(1790666269.915341) can0 003#8000800000000800
(1790666269.915341) can1 004#8000800000000800
(1790666269.915382) can1 005#8000800000000800
(1790666269.915383) can1 006#8000800000000800
(1790666269.915419) can1 001#8000800000000800
(1790666269.915469) can1 002#8000800000000800
(1790666269.915470) can1 003#8000800000000800
(1790666269.916075) can0 011#0180607FF7FF1F1C
(1790666269.916173) can0 012#0281137FF8012D1E
(1790666269.916215) can1 011#017EC97FF7FC211B
(1790666269.916298) can0 013#0380377FF7FF211B
(1790666269.916341) can1 012#027F677FE7F31F1B
(1790666269.916423) can0 014#04802F7FF7F12A1E
(1790666269.916469) can1 013#037FFD7FF7F61E1A
(1790666269.916526) can0 015#057FD47FF7FB2E1D
(1790666269.916566) can1 014#04805D7FF7FE2B15
(1790666269.916642) can0 016#0680297FF801271B
(1790666269.916693) can1 015#057F4A7FF80D1F1B
(1790666269.916789) can1 016#067FEB7FF802211A
(1790666269.923271) can0 004#8000800000000800
(1790666269.923308) can0 005#8000800000000800
(1790666269.923343) can0 006#8000800000000800
(1790666269.923343) can0 001#8000800000000800
(1790666269.923386) can0 002#8000800000000800
(1790666269.923387) can0 003#8000800000000800
(1790666269.923424) can1 004#8000800000000800
(1790666269.923465) can1 005#8000800000000800
(1790666269.923466) can1 006#8000800000000800
(1790666269.923507) can1 001#8000800000000800
(1790666269.923542) can1 002#8000800000000800
(1790666269.923543) can1 003#8000800000000800
(1790666269.924136) can0 011#0180607FF7FE1F1C
(1790666269.924245) can0 012#0281137FF7E72D1E
(1790666269.924288) can1 011#017EC97FF7FB211B
(1790666269.924349) can0 013#0380377FF803211B
(1790666269.924401) can1 012#027F677FF7F71F1B
(1790666269.924480) can0 014#04802F7FF8032A1E
(1790666269.924525) can1 013#037FFD7FF7F41E1A
(1790666269.924576) can0 015#057FD47FF7F82E1D
(1790666269.924629) can1 014#04805D7FF7FD2B15
(1790666269.924714) can0 016#0680297FF7F8271B
(1790666269.924757) can1 015#057F4A7FF7FC1F1B
(1790666269.924872) can1 016#067FEB7FF7F7211A
(1790666269.931268) can0 004#8000800000000800
(1790666269.931303) can0 005#8000800000000800
(1790666269.931304) can0 006#8000800000000800
(1790666269.931346) can0 001#8000800000000800
(1790666269.931346) can0 002#8000800000000800
(1790666269.931385) can0 003#8000800000000800
(1790666269.931386) can1 004#8000800000000800
(1790666269.931426) can1 005#8000800000000800
(1790666269.931427) can1 006#8000800000000800
(1790666269.931473) can1 001#8000800000000800
(1790666269.931473) can1 002#8000800000000800
(1790666269.931502) can1 003#8000800000000800
(1790666269.932123) can0 011#0180607FF7FF1F1C
(1790666269.932224) can0 012#0281137FF8012D1E
(1790666269.932260) can1 011#017EC97FF7FE211B
(1790666269.932353) can0 013#0380377FF800211B
(1790666269.932391) can1 012#027F677FF7F91F1B
(1790666269.932476) can0 014#04802F7FF8022A1E
(1790666269.932509) can1 013#037FFD7FF7F71E1A
(1790666269.932580) can0 015#057FD47FF8022E1D
(1790666269.932623) can1 014#04805D7FF7FC2B15
(1790666269.932695) can0 016#0680297FF7FB271B
(1790666269.932742) can1 015#057F4A7FF7FC1F1B
(1790666269.932821) can1 016#067FEB7FF7F8211A
(1790666269.939284) can0 004#8000800000000800
(1790666269.939313) can0 005#8000800000000800
(1790666269.939347) can0 006#8000800000000800
(1790666269.939348) can0 001#8000800000000800
(1790666269.939392) can0 002#8000800000000800
(1790666269.939392) can0 003#8000800000000800
(1790666269.939428) can1 004#8000800000000800
(1790666269.939468) can1 005#8000800000000800
(1790666269.939469) can1 006#8000800000000800
(1790666269.939511) can1 001#8000800000000800
(1790666269.939546) can1 002#8000800000000800
(1790666269.939547) can1 003#8000800000000800
(1790666269.940122) can0 011#0180607FF7FC1F1C
(1790666269.940221) can0 012#0281137FF8032D1E
(1790666269.940272) can1 011#017EC97FF7FB211B
(1790666269.940350) can0 013#0380377FF7EE211B
(1790666269.940402) can1 012#027F678007FE1F1B
(1790666269.940482) can0 014#04802F7FF8042A1E
(1790666269.940526) can1 013#037FFD7FF8021E1A
(1790666269.940578) can0 015#057FD47FF7FD2E1D
(1790666269.940632) can1 014#04805D7FF7FF2B15
(1790666269.940695) can0 016#0680297FF7FF271B
(1790666269.940746) can1 015#057F4A7FF8011F1B
(1790666269.940874) can1 016#067FEB7FF7F6211A
(1790666269.947274) can0 004#8000800000000800
(1790666269.947310) can0 005#8000800000000800
(1790666269.947310) can0 006#8000800000000800
(1790666269.947350) can0 001#8000800000000800
(1790666269.947351) can0 002#8000800000000800
(1790666269.947394) can0 003#8000800000000800
(1790666269.947394) can1 004#8000800000000800
(1790666269.947432) can1 005#8000800000000800
(1790666269.947471) can1 006#8000800000000800
(1790666269.947471) can1 001#8000800000000800
(1790666269.947510) can1 002#8000800000000800
(1790666269.947550) can1 003#8000800000000800
(1790666269.948140) can0 011#0180607FF7FC1F1C
(1790666269.948222) can0 012#0281137FF80A2D1E
(1790666269.948265) can1 011#017EC97FF7FB211B
(1790666269.948352) can0 013#0380377FF7FD211B
(1790666269.948396) can1 012#027F677FE80E1F1B
(1790666269.948484) can0 014#04802F7FF8092A1E
(1790666269.948527) can1 013#037FFD7FF7FC1E1A
(1790666269.948580) can0 015#057FD47FF7FE2E1D
(1790666269.948624) can1 014#04805D7FF7FE2B15
(1790666269.948696) can0 016#0680297FF7FA271B
(1790666269.948762) can1 015#057F4A7FF7ED1F1B
(1790666269.948849) can1 016#067FEB7FF7FD211A
(1790666269.955215) can0 004#8000800000000800
(1790666269.955251) can0 005#8000800000000800
(1790666269.955295) can0 006#8000800000000800
(1790666269.955296) can0 001#8000800000000800
(1790666269.955333) can0 002#8000800000000800
(1790666269.955333) can0 003#8000800000000800
(1790666269.955371) can1 004#8000800000000800
(1790666269.955412) can1 005#8000800000000800
(1790666269.955452) can1 006#8000800000000800
(1790666269.955453) can1 001#8000800000000800
(1790666269.955497) can1 002#8000800000000800
(1790666269.955498) can1 003#8000800000000800
(1790666269.956115) can0 011#0180607FF7FF1F1C
(1790666269.956175) can0 012#0281137FF8072D1E
(1790666269.956221) can1 011#017EC97FF7FE211B
(1790666269.956307) can0 013#0380377FF7EF211B
(1790666269.956340) can1 012#027F677FF7FD1F1B
(1790666269.956433) can0 014#04802F7FF8012A1E
(1790666269.956474) can1 013#037FFD7FF7F81E1A
(1790666269.956540) can0 015#057FD47FF7FC2E1D
(1790666269.956575) can1 014#04805D7FF7FE2B15
(1790666269.956649) can0 016#0680297FF7F0271B
(1790666269.956704) can1 015#057F4A8008001F1B
(1790666269.956824) can1 016#067FEB7FF7FC211A
(1790666269.963286) can0 004#8000800000000800
(1790666269.963317) can0 005#8000800000000800
(1790666269.963352) can0 006#8000800000000800
(1790666269.963353) can0 001#8000800000000800
(1790666269.963394) can0 002#8000800000000800
(1790666269.963395) can0 003#8000800000000800
(1790666269.963432) can1 004#8000800000000800
(1790666269.963474) can1 005#8000800000000800
(1790666269.963475) can1 006#8000800000000800
(1790666269.963515) can1 001#8000800000000800
(1790666269.963552) can1 002#8000800000000800
(1790666269.963553) can1 003#8000800000000800
(1790666269.964125) can0 011#0180607FF7FD1F1C
(1790666269.964250) can0 012#0281137FF8082D1E
(1790666269.964294) can1 011#017EC97FF802211B
(1790666269.964355) can0 013#0380377FF7FE211B
(1790666269.964406) can1 012#027F677FF8001F1B
(1790666269.964487) can0 014#04802F7FF8052A1E
(1790666269.964530) can1 013#037FFD7FF8001E1A
(1790666269.964594) can0 015#057FD47FF7F92E1D
(1790666269.964646) can1 014#04805D7FF7FA2B15
(1790666269.964699) can0 016#0680297FF7FE271B
(1790666269.964750) can1 015#057F4A7FF8091F1B
(1790666269.964877) can1 016#067FEB7FF800211A
(1790666269.971277) can0 004#8000800000000800
(1790666269.971311) can0 005#8000800000000800
(1790666269.971353) can0 006#8000800000000800
(1790666269.971353) can0 001#8000800000000800
(1790666269.971395) can0 002#8000800000000800
(1790666269.971395) can0 003#8000800000000800
(1790666269.971434) can1 004#8000800000000800
(1790666269.971474) can1 005#8000800000000800
(1790666269.971474) can1 006#8000800000000800
(1790666269.971517) can1 001#8000800000000800
(1790666269.971553) can1 002#8000800000000800
(1790666269.971553) can1 003#8000800000000800
(1790666269.972143) can0 011#0180607FF7FD1F1C
(1790666269.972225) can0 012#0281137FF8022D1E
(1790666269.972277) can1 011#017EC97FF7FB211B
(1790666269.972355) can0 013#0380377FF804211B
(1790666269.972407) can1 012#027F677FF7F11F1B
(1790666269.972487) can0 014#04802F7FF8012A1E
(1790666269.972531) can1 013#037FFD7FF8051E1A
(1790666269.972583) can0 015#057FD47FF7FD2E1D
(1790666269.972635) can1 014#04805D7FF7FB2B15
(1790666269.972699) can0 016#0680297FF803271B
(1790666269.972748) can1 015#057F4A7FF8061F1B
(1790666269.972878) can1 016#067FEB7FF803211A
(1790666269.979254) can0 004#8000800000000800
(1790666269.979288) can0 005#8000800000000800
(1790666269.979331) can0 006#8000800000000800
(1790666269.979331) can0 001#8000800000000800
(1790666269.979372) can0 002#8000800000000800
(1790666269.979372) can0 003#8000800000000800
(1790666269.979415) can1 004#8000800000000800
(1790666269.979416) can1 005#8000800000000800
(1790666269.979455) can1 006#8000800000000800
(1790666269.979455) can1 001#8000800000000800
(1790666269.979490) can1 002#8000800000000800
(1790666269.979538) can1 003#8000800000000800
(1790666269.980120) can0 011#0180607FF7FE1F1C
(1790666269.980227) can0 012#0281137FF8022D1E
(1790666269.980271) can1 011#017EC97FF802211B
(1790666269.980332) can0 013#0380377FF7FC211B
(1790666269.980383) can1 012#027F677FF7F41F1B
(1790666269.980457) can0 014#04802F7FF7F42A1E
(1790666269.980487) can1 013#037FFD7FF7F21E1A
(1790666269.980577) can0 015#057FD47FF7FB2E1D
(1790666269.980626) can1 014#04805D7FF7FE2B15
(1790666269.980706) can0 016#0680297FF800271B
(1790666269.980744) can1 015#057F4A7FF7FC1F1B
(1790666269.980858) can1 016#067FEB7FF802211A
(1790666269.987226) can0 004#8000800000000800
(1790666269.987265) can0 005#8000800000000800
(1790666269.987265) can0 006#8000800000000800
(1790666269.987306) can0 001#8000800000000800
(1790666269.987307) can0 002#8000800000000800
(1790666269.987346) can0 003#8000800000000800
(1790666269.987347) can1 004#8000800000000800
(1790666269.987391) can1 005#8000800000000800
(1790666269.987392) can1 006#8000800000000800
(1790666269.987429) can1 001#8000800000000800
(1790666269.987431) can1 002#8000800000000800
(1790666269.987502) can1 003#8000800000000800
(1790666269.988080) can0 011#0180607FF7FD1F1C
(1790666269.988179) can0 012#0281137FF8012D1E
(1790666269.988222) can1 011#017EC97FF7FF211B
(1790666269.988309) can0 013#0380377FF7FC211B
(1790666269.988352) can1 012#027F677FF8011F1B
(1790666269.988433) can0 014#04802F7FF8072A1E
(1790666269.988481) can1 013#037FFD7FF7FB1E1A
(1790666269.988542) can0 015#057FD47FF7FB2E1D
(1790666269.988578) can1 014#04805D7FF7FD2B15
(1790666269.988652) can0 016#0680297FF800271B
(1790666269.988695) can1 015#057F4A7FF7FD1F1B
(1790666269.988777) can1 016#067FEB7FF7FC211A
(1790666269.995239) can0 004#8000800000000800
(1790666269.995268) can0 005#8000800000000800
(1790666269.995269) can0 006#8000800000000800
(1790666269.995298) can0 001#8000800000000800
(1790666269.995338) can0 002#8000800000000800
(1790666269.995381) can0 003#8000800000000800
(1790666269.995382) can1 004#8000800000000800
(1790666269.995421) can1 005#8000800000000800
(1790666269.995421) can1 006#8000800000000800
(1790666269.995460) can1 001#8000800000000800
(1790666269.995460) can1 002#8000800000000800
(1790666269.995504) can1 003#8000800000000800
(1790666269.996102) can0 011#0180607FF8011F1C
(1790666269.996179) can0 012#0281137FF7FD2D1E
(1790666269.996231) can1 011#017EC97FF7FE211B
(1790666269.996308) can0 013#0380377FF803211B
(1790666269.996361) can1 012#027F677FF7F41F1B
(1790666269.996413) can0 014#04802F7FF8072A1E
(1790666269.996493) can1 013#037FFD80080B1E1A
(1790666269.996543) can0 015#057FD47FF8032E1D
(1790666269.996599) can1 014#04805D7FF7FE2B15
(1790666269.996651) can0 016#0680297FF7FF271B
(1790666269.996729) can1 015#057F4A80080C1F1B
(1790666269.996828) can1 016#067FEB7FF7F1211A
(1790666270.003261) can0 004#8000800000000800
(1790666270.003299) can0 005#8000800000000800
(1790666270.003300) can0 006#8000800000000800
(1790666270.003336) can0 001#8000800000000800
(1790666270.003379) can0 002#8000800000000800
(1790666270.003381) can0 003#8000800000000800
(1790666270.003419) can1 004#8000800000000800
(1790666270.003420) can1 005#8000800000000800
(1790666270.003460) can1 006#8000800000000800
(1790666270.003461) can1 001#8000800000000800
(1790666270.003495) can1 002#8000800000000800
(1790666270.003540) can1 003#8000800000000800
(1790666270.004113) can0 011#0180607FF7FF1F1C
(1790666270.004226) can0 012#0281137FF8052D1E
(1790666270.004269) can1 011#017EC97FF7FE211B
(1790666270.004329) can0 013#0380377FF802211B
(1790666270.004380) can1 012#027F677FF80D1F1B
(1790666270.004454) can0 014#04802F7FF7FE2A1E
(1790666270.004535) can1 013#037FFD7FF7FE1E1A
(1790666270.004581) can0 015#057FD47FF7FE2E1D
(1790666270.004624) can1 014#04805D7FF7FD2B15
(1790666270.004710) can0 016#0680297FF805271B
(1790666270.004753) can1 015#057F4A7FF7FD1F1B
(1790666270.004875) can1 016#067FEB7FF808211A
(1790666270.011295) can0 004#8000800000000800
(1790666270.011313) can0 005#8000800000000800
(1790666270.011357) can0 006#8000800000000800
(1790666270.011358) can0 001#8000800000000800
(1790666270.011400) can0 002#8000800000000800
(1790666270.011401) can0 003#8000800000000800
(1790666270.011437) can1 004#8000800000000800
(1790666270.011477) can1 005#8000800000000800
(1790666270.011478) can1 006#8000800000000800
(1790666270.011520) can1 001#8000800000000800
(1790666270.011553) can1 002#8000800000000800
(1790666270.011599) can1 003#8000800000000800
(1790666270.012135) can0 011#0180607FF7FE1F1C
(1790666270.012233) can0 012#0281137FF8032D1E
(1790666270.012285) can1 011#017EC97FF800211B
(1790666270.012362) can0 013#0380377FF7F8211B
(1790666270.012414) can1 012#027F677FF7FB1F1B
(1790666270.012494) can0 014#04802F7FF7FC2A1E
(1790666270.012538) can1 013#037FFD7FF7FD1E1A
(1790666270.012590) can0 015#057FD47FF7F92E1D
(1790666270.012641) can1 014#04805D7FF7FE2B15
(1790666270.012705) can0 016#0680297FF7F6271B
(1790666270.012755) can1 015#057F4A7FF8081F1B
(1790666270.012885) can1 016#067FEB7FF802211A
(1790666270.019268) can0 004#8000800000000800
(1790666270.019288) can0 005#8000800000000800
(1790666270.019332) can0 006#8000800000000800
(1790666270.019332) can0 001#8000800000000800
(1790666270.019372) can0 002#8000800000000800
(1790666270.019372) can0 003#8000800000000800
(1790666270.019418) can1 004#8000800000000800
(1790666270.019419) can1 005#8000800000000800
(1790666270.019451) can1 006#8000800000000800
(1790666270.019495) can1 001#8000800000000800
(1790666270.019495) can1 002#8000800000000800
(1790666270.019527) can1 003#8000800000000800
(1790666270.020103) can0 011#0180607FF7FD1F1C
(1790666270.020206) can0 012#0281137FF7FF2D1E
(1790666270.020258) can1 011#017EC97FF7FD211B
(1790666270.020336) can0 013#0380377FF7F7211B
(1790666270.020388) can1 012#027F677FF8051F1B
(1790666270.020459) can0 014#04802F7FF8052A1E
(1790666270.020493) can1 013#037FFD7FF8041E1A
(1790666270.020565) can0 015#057FD47FF7FB2E1D
(1790666270.020628) can1 014#04805D7FF7FA2B15
(1790666270.020680) can0 016#0680297FF7FE271B
(1790666270.020732) can1 015#057F4A7FF8051F1B
(1790666270.020856) can1 016#067FEB7FF804211A
(1790666270.027254) can0 004#8000800000000800
(1790666270.027289) can0 005#8000800000000800
(1790666270.027290) can0 006#8000800000000800
(1790666270.027327) can0 001#8000800000000800
(1790666270.027370) can0 002#8000800000000800
(1790666270.027371) can0 003#8000800000000800
(1790666270.027410) can1 004#8000800000000800
(1790666270.027411) can1 005#8000800000000800
(1790666270.027447) can1 006#8000800000000800
(1790666270.027489) can1 001#8000800000000800
(1790666270.027489) can1 002#8000800000000800
(1790666270.027535) can1 003#8000800000000800
(1790666270.028116) can0 011#0180607FF7FE1F1C
(1790666270.028213) can0 012#0281137FF7FF2D1E
(1790666270.028265) can1 011#017EC97FF7F9211B
(1790666270.028340) can0 013#0380377FF801211B
(1790666270.028386) can1 012#027F677FF8041F1B
(1790666270.028462) can0 014#04802F7FF7FF2A1E
(1790666270.028512) can1 013#037FFD7FF8041E1A
(1790666270.028589) can0 015#057FD47FF8012E1D
(1790666270.028631) can1 014#04805D7FF7FC2B15
(1790666270.028690) can0 016#0680297FF7F1271B
(1790666270.028744) can1 015#057F4A7FF7FD1F1B
(1790666270.028860) can1 016#067FEB7FF7FA211A
(1790666270.035261) can0 004#8000800000000800
(1790666270.035297) can0 005#8000800000000800
(1790666270.035297) can0 006#8000800000000800
(1790666270.035331) can0 001#8000800000000800
(1790666270.035375) can0 002#8000800000000800
(1790666270.035376) can0 003#8000800000000800
(1790666270.035418) can1 004#8000800000000800
(1790666270.035419) can1 005#8000800000000800
(1790666270.035450) can1 006#8000800000000800
(1790666270.035494) can1 001#8000800000000800
(1790666270.035495) can1 002#8000800000000800
(1790666270.035534) can1 003#8000800000000800
(1790666270.036110) can0 011#0180607FF7FD1F1C
(1790666270.036205) can0 012#0281137FF8052D1E
(1790666270.036262) can1 011#017EC97FF800211B
(1790666270.036343) can0 013#0380377FF7FE211B
(1790666270.036391) can1 012#027F677FF8051F1B
(1790666270.036462) can0 014#04802F7FF7F92A1E
(1790666270.036496) can1 013#037FFD7FF7F71E1A
(1790666270.036580) can0 015#057FD47FF7FE2E1D
(1790666270.036621) can1 014#04805D7FF7FB2B15
(1790666270.036711) can0 016#0680297FF801271B
(1790666270.036748) can1 015#057F4A7FF7F81F1B
(1790666270.036862) can1 016#067FEB7FF7F9211A
(1790666270.043231) can0 004#8000800000000800
(1790666270.043264) can0 005#8000800000000800
(1790666270.043308) can0 006#8000800000000800
(1790666270.043308) can0 001#8000800000000800
(1790666270.043350) can0 002#8000800000000800
(1790666270.043389) can0 003#8000800000000800
(1790666270.043389) can1 004#8000800000000800
(1790666270.043426) can1 005#8000800000000800
(1790666270.043426) can1 006#8000800000000800
(1790666270.043466) can1 001#8000800000000800
(1790666270.043467) can1 002#8000800000000800
(1790666270.043512) can1 003#8000800000000800
(1790666270.044106) can0 011#0180607FF7FD1F1C
(1790666270.044186) can0 012#0281137FF8012D1E
(1790666270.044238) can1 011#017EC97FF7FF211B
(1790666270.044317) can0 013#0380377FF7F4211B
(1790666270.044368) can1 012#027F677FE7F61F1B
(1790666270.044441) can0 014#04802F7FF7F42A1E
(1790666270.044521) can1 013#037FFD7FF7FC1E1A
(1790666270.044563) can0 015#057FD47FF7FC2E1D
(1790666270.044607) can1 014#04805D7FF7FE2B15
(1790666270.044658) can0 016#0680297FF7FE271B
(1790666270.044736) can1 015#057F4A7FF7FE1F1B
(1790666270.044863) can1 016#067FEB7FF804211A
(1790666270.051235) can0 004#8000800000000800
(1790666270.051273) can0 005#8000800000000800
(1790666270.051273) can0 006#8000800000000800
(1790666270.051313) can0 001#8000800000000800
(1790666270.051313) can0 002#8000800000000800
(1790666270.051349) can0 003#8000800000000800
(1790666270.051392) can1 004#8000800000000800
(1790666270.051392) can1 005#8000800000000800
(1790666270.051431) can1 006#8000800000000800
(1790666270.051433) can1 001#8000800000000800
(1790666270.051472) can1 002#8000800000000800
(1790666270.051508) can1 003#8000800000000800
(1790666270.052087) can0 011#0180607FF7FD1F1C
(1790666270.052187) can0 012#0281137FF7FF2D1E
(1790666270.052229) can1 011#017EC97FF7FC211B
(1790666270.052317) can0 013#0380377FF7F6211B
(1790666270.052359) can1 012#027F677FF8051F1B
(1790666270.052422) can0 014#04802F7FF8042A1E
(1790666270.052469) can1 013#037FFD7FF7F51E1A
(1790666270.052546) can0 015#057FD47FF7FD2E1D
(1790666270.052586) can1 014#04805D7FF7FB2B15
(1790666270.052662) can0 016#0680297FF7FC271B
(1790666270.052704) can1 015#057F4A7FF7FB1F1B
(1790666270.052809) can1 016#067FEB7FF7FA211A
(1790666270.059300) can0 004#8000800000000800
(1790666270.059328) can0 005#8000800000000800
(1790666270.059364) can0 006#8000800000000800
(1790666270.059364) can0 001#8000800000000800
(1790666270.059411) can0 002#8000800000000800
(1790666270.059413) can0 003#8000800000000800
(1790666270.059447) can1 004#8000800000000800
(1790666270.059491) can1 005#8000800000000800
(1790666270.059492) can1 006#8000800000000800
(1790666270.059546) can1 001#8000800000000800
(1790666270.059567) can1 002#8000800000000800
(1790666270.059568) can1 003#8000800000000800
(1790666270.060154) can0 011#0180607FF7FD1F1C
(1790666270.060242) can0 012#0281137FF7F32D1E
(1790666270.060293) can1 011#017EC97FF7F9211B
(1790666270.060371) can0 013#0380377FF800211B
(1790666270.060423) can1 012#027F677FF8081F1B
(1790666270.060502) can0 014#04802F7FF8042A1E
(1790666270.060546) can1 013#037FFD7FF8051E1A
(1790666270.060597) can0 015#057FD47FF7FC2E1D
(1790666270.060650) can1 014#04805D7FF7FD2B15
(1790666270.060713) can0 016#0680297FF800271B
(1790666270.060765) can1 015#057F4A7FF7F91F1B
(1790666270.060893) can1 016#067FEB7FF7F8211A
(1790666270.067236) can0 004#8000800000000800
(1790666270.067273) can0 005#8000800000000800
(1790666270.067274) can0 006#8000800000000800
(1790666270.067313) can0 001#8000800000000800
(1790666270.067313) can0 002#8000800000000800
(1790666270.067350) can0 003#8000800000000800
(1790666270.067393) can1 004#8000800000000800
(1790666270.067393) can1 005#8000800000000800
(1790666270.067432) can1 006#8000800000000800
(1790666270.067433) can1 001#8000800000000800
(1790666270.067478) can1 002#8000800000000800
(1790666270.067514) can1 003#8000800000000800
(1790666270.068094) can0 011#0180607FF7FE1F1C
(1790666270.068213) can0 012#0281137FF8052D1E
(1790666270.068255) can1 011#017EC97FF7FF211B
(1790666270.068316) can0 013#0380377FF7F5211B
(1790666270.068358) can1 012#027F677FF8041F1B
(1790666270.068441) can0 014#04802F7FF7FF2A1E
(1790666270.068480) can1 013#037FFD7FF7FC1E1A
(1790666270.068570) can0 015#057FD47FF8022E1D
(1790666270.068612) can1 014#04805D7FF7FD2C15
(1790666270.068671) can0 016#0680297FF803271B
(1790666270.068707) can1 015#057F4A7FF7EE1F1B
(1790666270.068839) can1 016#067FEB7FF7FD211A
(1790666270.075238) can0 004#8000800000000800
(1790666270.075271) can0 005#8000800000000800
(1790666270.075315) can0 006#8000800000000800
(1790666270.075315) can0 001#8000800000000800
(1790666270.075356) can0 002#8000800000000800
(1790666270.075395) can0 003#8000800000000800
(1790666270.075395) can1 004#8000800000000800
(1790666270.075434) can1 005#8000800000000800
(1790666270.075435) can1 006#8000800000000800
(1790666270.075473) can1 001#8000800000000800
(1790666270.075474) can1 002#8000800000000800
(1790666270.075519) can1 003#8000800000000800
(1790666270.076090) can0 011#0180607FF7FE1F1C
(1790666270.076190) can0 012#0281137FF8062D1E
(1790666270.076242) can1 011#017EC97FF7FE211B
(1790666270.076321) can0 013#0380377FF801211B
(1790666270.076373) can1 012#027F677FF8001F1B
(1790666270.076446) can0 014#04802F7FF7F82A1E
(1790666270.076525) can1 013#037FFD7FF7F31E1A
(1790666270.076567) can0 015#057FD47FF7FC2E1D
(1790666270.076611) can1 014#04805D7FF7FE2B15
(1790666270.076689) can0 016#0680297FF801271B
(1790666270.076744) can1 015#057F4A7FF7FD1F1B
(1790666270.076840) can1 016#067FEB7FF7F6211A
(1790666270.083267) can0 004#8000800000000800
(1790666270.083306) can0 005#8000800000000800
(1790666270.083306) can0 006#8000800000000800
(1790666270.083341) can0 001#8000800000000800
(1790666270.083384) can0 002#8000800000000800
(1790666270.083384) can0 003#8000800000000800
(1790666270.083429) can1 004#8000800000000800
(1790666270.083430) can1 005#8000800000000800
(1790666270.083475) can1 006#8000800000000800
(1790666270.083477) can1 001#8000800000000800
(1790666270.083500) can1 002#8000800000000800
(1790666270.083545) can1 003#8000800000000800
(1790666270.084118) can0 011#0180607FF7FE1F1C
(1790666270.084243) can0 012#0281137FF8032D1E
(1790666270.084282) can1 011#017EC97FF800211B
(1790666270.084347) can0 013#0380377FF7FE211B
(1790666270.084399) can1 012#027F677FF7FB1F1B
(1790666270.084471) can0 014#04802F7FF7F32A1E
(1790666270.084502) can1 013#037FFD7FF7FA1E1A
(1790666270.084594) can0 015#057FD47FF7FB2E1D
(1790666270.084632) can1 014#04805D7FF7FE2B15
(1790666270.084695) can0 016#0680297FF809271B
(1790666270.084747) can1 015#057F4A7FF8051F1B
(1790666270.084870) can1 016#067FEB7FF805211A
(1790666270.091224) can0 004#8000800000000800
(1790666270.091257) can0 005#8000800000000800
(1790666270.091301) can0 006#8000800000000800
(1790666270.091302) can0 001#8000800000000800
(1790666270.091343) can0 002#8000800000000800
(1790666270.091344) can0 003#8000800000000800
(1790666270.091382) can1 004#8000800000000800
(1790666270.091427) can1 005#8000800000000800
(1790666270.091427) can1 006#8000800000000800
(1790666270.091456) can1 001#8000800000000800
(1790666270.091510) can1 002#8000800000000800
(1790666270.091510) can1 003#8000800000000800
(1790666270.092094) can0 011#0180607FF7FE1F1C
(1790666270.092191) can0 012#0281137FF7F62D1E
(1790666270.092226) can1 011#017EC97FF802211B
(1790666270.092318) can0 013#0380377FF7FD211B
(1790666270.092360) can1 012#027F677FF7F31F1B
(1790666270.092423) can0 014#04802F7FF8042A1E
(1790666270.092468) can1 013#037FFD7FF7FD1E1A
(1790666270.092552) can0 015#057FD47FF7FD2E1D
(1790666270.092591) can1 014#04805D7FF7FC2C15
(1790666270.092667) can0 016#0680297FF7F8271B
(1790666270.092702) can1 015#057F4A7FF7E81F1B
(1790666270.092815) can1 016#067FEB7FF808211A
(1790666270.099261) can0 004#8000800000000800
(1790666270.099300) can0 005#8000800000000800
(1790666270.099301) can0 006#8000800000000800
(1790666270.099337) can0 001#8000800000000800
(1790666270.099380) can0 002#8000800000000800
(1790666270.099381) can0 003#8000800000000800
(1790666270.099421) can1 004#8000800000000800
(1790666270.099421) can1 005#8000800000000800
(1790666270.099459) can1 006#8000800000000800
(1790666270.099503) can1 001#8000800000000800
(1790666270.099503) can1 002#8000800000000800
(1790666270.099538) can1 003#8000800000000800
(1790666270.100127) can0 011#0180607FF8001F1C
(1790666270.100244) can0 012#0281138007FC2D1E
(1790666270.100283) can1 011#017EC97FF7FB211B
(1790666270.100374) can0 013#0380377FF7FD211B
(1790666270.100400) can1 012#027F677FF7F51F1B
(1790666270.100469) can0 014#04802F7FF8012A1E
(1790666270.100502) can1 013#037FFD7FF7FE1E1A
(1790666270.100589) can0 015#057FD47FF8022E1D
(1790666270.100642) can1 014#04805D7FF7FE2B15
(1790666270.100694) can0 016#0680297FF7FC271B
(1790666270.100748) can1 015#057F4A7FF7FD1F1B
(1790666270.100866) can1 016#067FEB7FF809211A
(1790666270.107239) can0 004#8000800000000800
(1790666270.107274) can0 005#8000800000000800
(1790666270.107317) can0 006#8000800000000800
(1790666270.107318) can0 001#8000800000000800
(1790666270.107354) can0 002#8000800000000800
(1790666270.107399) can0 003#8000800000000800
(1790666270.107399) can1 004#8000800000000800
(1790666270.107454) can1 005#8000800000000800
(1790666270.107456) can1 006#8000800000000800
(1790666270.107477) can1 001#8000800000000800
(1790666270.107478) can1 002#8000800000000800
(1790666270.107520) can1 003#8000800000000800
(1790666270.108098) can0 011#0180607FF7FE1F1C
(1790666270.108197) can0 012#0281137FF7F52D1E
(1790666270.108247) can1 011#017EC97FF7FF211B
(1790666270.108325) can0 013#0380377FF802211B
(1790666270.108377) can1 012#027F677FF8051F1B
(1790666270.108450) can0 014#04802F7FF8012A1E
(1790666270.108531) can1 013#037FFD7FF8121E1A
(1790666270.108568) can0 015#057FD47FF7FE2E1D
(1790666270.108616) can1 014#04805D7FF7FE2B15
(1790666270.108695) can0 016#0680297FF801271B
(1790666270.108749) can1 015#057F4A7FF7FE1F1B
(1790666270.108845) can1 016#067FEB7FF802211A
(1790666270.115256) can0 004#8000800000000800
(1790666270.115284) can0 005#8000800000000800
(1790666270.115326) can0 006#8000800000000800
(1790666270.115326) can0 001#8000800000000800
(1790666270.115371) can0 002#8000800000000800
(1790666270.115373) can0 003#8000800000000800
(1790666270.115408) can1 004#8000800000000800
(1790666270.115455) can1 005#8000800000000800
(1790666270.115456) can1 006#8000800000000800
(1790666270.115489) can1 001#8000800000000800
(1790666270.115534) can1 002#8000800000000800
(1790666270.115535) can1 003#8000800000000800
(1790666270.116095) can0 011#0180607FF7FE1F1C
(1790666270.116222) can0 012#0281137FF8012D1E
(1790666270.116258) can1 011#017EC97FF7FE211B
(1790666270.116325) can0 013#0380377FF801211B
(1790666270.116377) can1 012#027F677FF8021F1B
(1790666270.116450) can0 014#04802F7FF7F02A1E
(1790666270.116530) can1 013#037FFD7FF7ED1E1A
(1790666270.116594) can0 015#057FD47FF7FF2E1D
(1790666270.116636) can1 014#04805D7FF7FD2C15
(1790666270.116696) can0 016#0680297FF802271B
(1790666270.116741) can1 015#057F4A7FF7FE1F1B
(1790666270.116844) can1 016#067FEB7FF7FA211A
(1790666270.123266) can0 004#8000800000000800
(1790666270.123301) can0 005#8000800000000800
(1790666270.123343) can0 006#8000800000000800
(1790666270.123344) can0 001#8000800000000800
(1790666270.123387) can0 002#8000800000000800
(1790666270.123388) can0 003#8000800000000800
(1790666270.123425) can1 004#8000800000000800
(1790666270.123472) can1 005#8000800000000800
(1790666270.123472) can1 006#8000800000000800
(1790666270.123473) can1 001#8000800000000800
(1790666270.123505) can1 002#8000800000000800
(1790666270.123548) can1 003#8000800000000800
(1790666270.124139) can0 011#0180607FF7FD1F1C
(1790666270.124220) can0 012#0281137FF7FF2D1E
(1790666270.124272) can1 011#017EC97FF800211B
(1790666270.124350) can0 013#0380377FF806211B
(1790666270.124402) can1 012#027F677FF7FB1F1B
(1790666270.124474) can0 014#04802F7FF7FA2A1E
(1790666270.124508) can1 013#037FFD7FF7F61E1A
(1790666270.124595) can0 015#057FD47FF8042E1D
(1790666270.124637) can1 014#04805D7FF7FC2B15
(1790666270.124696) can0 016#0680297FF7FA271B
(1790666270.124748) can1 015#057F4A7FF7FE1F1B
(1790666270.124874) can1 016#067FEB7FF7FE211A
(1790666270.131256) can0 004#8000800000000800
(1790666270.131261) can0 005#8000800000000800
(1790666270.131293) can0 006#8000800000000800
(1790666270.131293) can0 001#8000800000000800
(1790666270.131334) can0 002#8000800000000800
(1790666270.131374) can0 003#8000800000000800
(1790666270.131375) can1 004#8000800000000800
(1790666270.131414) can1 005#8000800000000800
(1790666270.131415) can1 006#8000800000000800
(1790666270.131453) can1 001#8000800000000800
(1790666270.131454) can1 002#8000800000000800
(1790666270.131496) can1 003#8000800000000800
(1790666270.132060) can0 011#0180607FF7FE1F1C
(1790666270.132198) can0 012#0281137FF7F02D1E
(1790666270.132249) can1 011#017EC97FF800211B
(1790666270.132300) can0 013#0380377FF7FF211B
(1790666270.132354) can1 012#027F677FF7FF1F1B
(1790666270.132432) can0 014#04802F7FF8082A1E
(1790666270.132482) can1 013#037FFD7FF7FF1E1A
(1790666270.132556) can0 015#057FD47FF8012E1D
(1790666270.132609) can1 014#04805D7FF7FD2B15
(1790666270.132660) can0 016#0680297FF7FC271B
(1790666270.132722) can1 015#057F4A7FF8041F1B
(1790666270.132849) can1 016#067FEB7FF808211A
(1790666270.139264) can0 004#8000800000000800
(1790666270.139273) can0 005#8000800000000800
(1790666270.139298) can0 006#8000800000000800
(1790666270.139299) can0 001#8000800000000800
(1790666270.139338) can0 002#8000800000000800
(1790666270.139379) can1 004#8000800000000800
(1790666270.139378) can0 003#8000800000000800
(1790666270.139418) can1 005#8000800000000800
(1790666270.139419) can1 006#8000800000000800
(1790666270.139456) can1 001#8000800000000800
(1790666270.139457) can1 002#8000800000000800
(1790666270.139501) can1 003#8000800000000800
(1790666270.140083) can0 011#0180607FF7FE1F1C
(1790666270.140179) can0 012#0281137FF7FE2D1E
(1790666270.140229) can1 011#017EC97FF7F9211B
(1790666270.140304) can0 013#0380377FF804211B
(1790666270.140354) can1 012#027F677FF8031F1B
(1790666270.140429) can0 014#04802F7FF7F42A1E
(1790666270.140477) can1 013#037FFD7FF7EC1E1A
(1790666270.140526) can0 015#057FD47FF7FB2E1D
(1790666270.140604) can1 014#04805D7FF7FF2B15
(1790666270.140654) can0 016#0680297FF7FC271B
(1790666270.140704) can1 015#057F4A7FF8031F1B
(1790666270.140822) can1 016#067FEB7FF7F2211A
(1790666270.147253) can0 004#8000800000000800
(1790666270.147286) can0 005#8000800000000800
(1790666270.147287) can0 006#8000800000000800
(1790666270.147333) can0 001#8000800000000800
(1790666270.147334) can0 002#8000800000000800
(1790666270.147334) can0 003#8000800000000800
(1790666270.147363) can1 004#8000800000000800
(1790666270.147406) can1 005#8000800000000800
(1790666270.147407) can1 006#8000800000000800
(1790666270.147451) can1 001#8000800000000800
(1790666270.147452) can1 002#8000800000000800
(1790666270.147527) can1 003#8000800000000800
(1790666270.148099) can0 011#0180607FF7FD1F1C
(1790666270.148199) can0 012#0281137FF8022D1E
(1790666270.148243) can1 011#017EC97FF7FF211B
(1790666270.148330) can0 013#0380377FF803211B
(1790666270.148373) can1 012#027F677FF8001F1B
(1790666270.148434) can0 014#04802F7FF7FE2A1E
(1790666270.148480) can1 013#037FFD7FF7F41E1A
(1790666270.148559) can0 015#057FD47FF7FC2E1D
(1790666270.148599) can1 014#04805D7FF7FF2B15
(1790666270.148674) can0 016#0680297FF7F1271B
(1790666270.148717) can1 015#057F4A7FF8011F1B
(1790666270.148820) can1 016#067FEB7FF7F8211A
(1790666270.155237) can0 004#8000800000000800
(1790666270.155274) can0 005#8000800000000800
(1790666270.155275) can0 006#8000800000000800
(1790666270.155317) can0 001#8000800000000800
(1790666270.155317) can0 002#8000800000000800
(1790666270.155354) can0 003#8000800000000800
(1790666270.155355) can1 004#8000800000000800
(1790666270.155397) can1 005#8000800000000800
(1790666270.155398) can1 006#8000800000000800
(1790666270.155437) can1 001#8000800000000800
(1790666270.155438) can1 002#8000800000000800
(1790666270.155471) can1 003#8000800000000800
(1790666270.156125) can0 011#0180607FF7FF1F1C
(1790666270.156203) can0 012#0281137FF7FD2D1E
(1790666270.156243) can1 011#017EC97FF7FE211B
(1790666270.156306) can0 013#0380377FF7FE211B
(1790666270.156349) can1 012#027F677FF7FC1F1B
(1790666270.156439) can0 014#04802F7FF7FD2A1E
(1790666270.156483) can1 013#037FFD7FF8111E1A
(1790666270.156571) can0 015#057FD47FF7FE2E1D
(1790666270.156602) can1 014#04805D7FF7FD2C15
(1790666270.156679) can0 016#0680297FF7FC271B
(1790666270.156717) can1 015#057F4A7FF8051F1B
(1790666270.156804) can1 016#067FEB7FF7F2211A
(1790666270.163229) can0 004#8000800000000800
(1790666270.163257) can0 005#8000800000000800
(1790666270.163301) can0 006#8000800000000800
(1790666270.163302) can0 001#8000800000000800
(1790666270.163341) can0 002#8000800000000800
(1790666270.163381) can0 003#8000800000000800
(1790666270.163381) can1 004#8000800000000800
(1790666270.163421) can1 005#8000800000000800
(1790666270.163422) can1 006#8000800000000800
(1790666270.163459) can1 001#8000800000000800
(1790666270.163460) can1 002#8000800000000800
(1790666270.163504) can1 003#8000800000000800
(1790666270.164068) can0 011#0180607FF7FE1F1C
(1790666270.164200) can0 012#0281137FF8062D1E
(1790666270.164252) can1 011#017EC97FF7FD211B
(1790666270.164302) can0 013#0380377FF7FE211B
(1790666270.164352) can1 012#027F677FF7FF1F1B
(1790666270.164427) can0 014#04802F7FF8052A1E
(1790666270.164476) can1 013#037FFD7FF80F1E1A
(1790666270.164556) can0 015#057FD47FF8032E1D
(1790666270.164607) can1 014#04805D7FF7FC2C15
(1790666270.164657) can0 016#0680297FF7FF271B
(1790666270.164707) can1 015#057F4A7FF7EF1F1B
(1790666270.164825) can1 016#067FEB7FF7FA211A
(1790666270.171248) can0 004#8000800000000800
(1790666270.171282) can0 005#8000800000000800
(1790666270.171325) can0 006#8000800000000800
(1790666270.171326) can0 001#8000800000000800
(1790666270.171362) can0 002#8000800000000800
(1790666270.171409) can0 003#8000800000000800
(1790666270.171409) can1 004#8000800000000800
(1790666270.171410) can1 005#8000800000000800
(1790666270.171447) can1 006#8000800000000800
(1790666270.171448) can1 001#8000800000000800
(1790666270.171482) can1 002#8000800000000800
(1790666270.171525) can1 003#8000800000000800
(1790666270.172124) can0 011#0180607FF7FF1F1C
(1790666270.172203) can0 012#0281137FE7FD2D1E
(1790666270.172255) can1 011#017EC97FF7FB211B
(1790666270.172333) can0 013#0380377FF7FC211B
(1790666270.172385) can1 012#027F677FF7F31F1B
(1790666270.172458) can0 014#04802F7FF7F92A1E
(1790666270.172538) can1 013#037FFD7FF8031E1A
(1790666270.172580) can0 015#057FD47FF7F82E1D
(1790666270.172623) can1 014#04805D7FF7FD2B15
(1790666270.172675) can0 016#0680297FF803271B
(1790666270.172727) can1 015#057F4A7FF7FA1F1B
(1790666270.172852) can1 016#067FEB7FF7F7211A
(1790666270.179249) can0 004#8000800000000800
(1790666270.179291) can0 005#8000800000000800
(1790666270.179292) can0 006#8000800000000800
(1790666270.179322) can0 001#8000800000000800
(1790666270.179458) can0 002#8000800000000800
(1790666270.179488) can0 003#8000800000000800
(1790666270.179489) can1 004#8000800000000800
(1790666270.179490) can1 005#8000800000000800
(1790666270.179491) can1 006#8000800000000800
(1790666270.179496) can1 001#8000800000000800
(1790666270.179520) can1 002#8000800000000800
(1790666270.179563) can1 003#8000800000000800
(1790666270.180108) can0 011#0180607FF7FE1F1C
(1790666270.180206) can0 012#0281137FF80B2D1E
(1790666270.180257) can1 011#017EC97FF801211B
(1790666270.180336) can0 013#0380377FF800211B
(1790666270.180387) can1 012#027F677FF7F81F1B
(1790666270.180460) can0 014#04802F7FF7FF2A1E
(1790666270.180539) can1 013#037FFD8007FD1E1A
(1790666270.180582) can0 015#057FD47FF8002E1D
(1790666270.180616) can1 014#04805D7FF7FC2B15
(1790666270.180693) can0 016#0680297FF803271B
(1790666270.180755) can1 015#057F4A7FF7FF1F1B
(1790666270.180857) can1 016#067FEB7FF7FB211A
(1790666270.187255) can0 004#8000800000000800
(1790666270.187293) can0 005#8000800000000800
(1790666270.187294) can0 006#8000800000000800
(1790666270.187333) can0 001#8000800000000800
(1790666270.187334) can0 002#8000800000000800
(1790666270.187369) can0 003#8000800000000800
(1790666270.187413) can1 004#8000800000000800
(1790666270.187415) can1 005#8000800000000800
(1790666270.187452) can1 006#8000800000000800
(1790666270.187453) can1 001#8000800000000800
(1790666270.187495) can1 002#8000800000000800
(1790666270.187530) can1 003#8000800000000800
(1790666270.188119) can0 011#0180607FF7FD1F1C
(1790666270.188206) can0 012#0281137FF7F92D1E
(1790666270.188250) can1 011#017EC97FF7FB211B
(1790666270.188337) can0 013#0380377FF7FE211B
(1790666270.188380) can1 012#027F677FF8041F1B
(1790666270.188462) can0 014#04802F7FF7FA2A1E
(1790666270.188508) can1 013#037FFD7FF8001E1A
(1790666270.188565) can0 015#057FD47FF7FA2E1D
(1790666270.188604) can1 014#04805D7FF7FE2B15
(1790666270.188680) can0 016#0680297FF7F4271B
(1790666270.188731) can1 015#057F4A7FF8081F1B
(1790666270.188826) can1 016#067FEB7FF7F8211A
(1790666270.195257) can0 004#8000800000000800
(1790666270.195293) can0 005#8000800000000800
(1790666270.195293) can0 006#8000800000000800
(1790666270.195335) can0 001#8000800000000800
(1790666270.195336) can0 002#8000800000000800
(1790666270.195370) can0 003#8000800000000800
(1790666270.195418) can1 004#8000800000000800
(1790666270.195419) can1 005#8000800000000800
(1790666270.195419) can1 006#8000800000000800
(1790666270.195460) can1 001#8000800000000800
(1790666270.195461) can1 002#8000800000000800
(1790666270.195499) can1 003#8000800000000800
(1790666270.196124) can0 011#0180607FF7FD1F1C
(1790666270.196213) can0 012#0281137FF7F02D1E
(1790666270.196260) can1 011#017EC97FF800211B
(1790666270.196338) can0 013#0380377FF803211B
(1790666270.196380) can1 012#027F677FF7F41F1B
(1790666270.196463) can0 014#04802F7FF8012A1E
(1790666270.196511) can1 013#037FFD7FF7ED1E1A
(1790666270.196566) can0 015#057FD47FF7F82E1D
(1790666270.196606) can1 014#04805D7FF7FD2C15
(1790666270.196680) can0 016#0680297FF7F5271B
(1790666270.196732) can1 015#057F4A7FF8001F1B
(1790666270.196855) can1 016#067FEB7FF804211A
(1790666270.203254) can0 004#8000800000000800
(1790666270.203289) can0 005#8000800000000800
(1790666270.203333) can0 006#8000800000000800
(1790666270.203333) can0 001#8000800000000800
(1790666270.203374) can0 002#8000800000000800
(1790666270.203432) can0 003#8000800000000800
(1790666270.203433) can1 004#8000800000000800
(1790666270.203457) can1 005#8000800000000800
(1790666270.203458) can1 006#8000800000000800
(1790666270.203492) can1 001#8000800000000800
(1790666270.203493) can1 002#8000800000000800
(1790666270.203535) can1 003#8000800000000800
(1790666270.204130) can0 011#0180607FF8011F1C
(1790666270.204208) can0 012#0281137FF8002D1E
(1790666270.204260) can1 011#017EC97FF7FF211B
(1790666270.204339) can0 013#0380377FF7FC211B
(1790666270.204388) can1 012#027F677FF8011F1B
(1790666270.204459) can0 014#04802F7FF8032A1E
(1790666270.204539) can1 013#037FFD7FF7FF1E1A
(1790666270.204582) can0 015#057FD47FF7FB2E1D
(1790666270.204629) can1 014#04805D7FF7FE2B15
(1790666270.204680) can0 016#0680297FF7FD271B
(1790666270.204758) can1 015#057F4A7FF8071F1B
(1790666270.204858) can1 016#067FEB7FF800211A
(1790666270.211273) can0 004#8000800000000800
(1790666270.211283) can0 005#8000800000000800
(1790666270.211309) can0 006#8000800000000800
(1790666270.211310) can0 001#8000800000000800
(1790666270.211347) can0 002#8000800000000800
(1790666270.211387) can0 003#8000800000000800
(1790666270.211388) can1 004#8000800000000800
(1790666270.211427) can1 005#8000800000000800
(1790666270.211427) can1 006#8000800000000800
(1790666270.211466) can1 001#8000800000000800
(1790666270.211466) can1 002#8000800000000800
(1790666270.211510) can1 003#8000800000000800
(1790666270.212077) can0 011#0180607FF7FE1F1C
(1790666270.212210) can0 012#0281137FF7FF2D1E
(1790666270.212266) can1 011#017EC97FF7FD211B
(1790666270.212312) can0 013#0380377FF800211B
(1790666270.212365) can1 012#027F677FF8091F1B
(1790666270.212442) can0 014#04802F7FF8042A1E
(1790666270.212489) can1 013#037FFD7FF7FE1E1A
(1790666270.212549) can0 015#057FD47FF7FF2E1D
(1790666270.212608) can1 014#04805D7FF7FC2C15
(1790666270.212684) can0 016#0680297FF7F8271B
(1790666270.212736) can1 015#057F4A7FF7FC1F1B
(1790666270.212859) can1 016#067FEB7FF7FA211A
(1790666270.219257) can0 004#8000800000000800
(1790666270.219298) can0 005#8000800000000800
(1790666270.219299) can0 006#8000800000000800
(1790666270.219337) can0 001#8000800000000800
(1790666270.219338) can0 002#8000800000000800
(1790666270.219374) can0 003#8000800000000800
(1790666270.219417) can1 004#8000800000000800
(1790666270.219418) can1 005#8000800000000800
(1790666270.219461) can1 006#8000800000000800
(1790666270.219462) can1 001#8000800000000800
(1790666270.219501) can1 002#8000800000000800
(1790666270.219537) can1 003#8000800000000800
(1790666270.220131) can0 011#0180607FF7FD1F1C
(1790666270.220209) can0 012#0281137FF8072D1E
(1790666270.220254) can1 011#017EC97FF801211B
(1790666270.220341) can0 013#0380377FF7F7211B
(1790666270.220384) can1 012#027F677FF8031F1B
(1790666270.220465) can0 014#04802F7FF7FF2A1E
(1790666270.220513) can1 013#037FFD7FF7F91E1A
(1790666270.220574) can0 015#057FD47FF7FF2E1D
(1790666270.220610) can1 014#04805D7FF7FD2B15
(1790666270.220710) can0 016#0680297FF804271B
(1790666270.220753) can1 015#057F4A7FF8041F1B
(1790666270.220830) can1 016#067FEB7FF7FA211A
(1790666270.227305) can0 004#8000800000000800
(1790666270.227309) can0 005#8000800000000800
(1790666270.227341) can0 006#8000800000000800
(1790666270.227341) can0 001#8000800000000800
(1790666270.227382) can0 002#8000800000000800
(1790666270.227383) can0 003#8000800000000800
(1790666270.227420) can1 004#8000800000000800
(1790666270.227468) can1 005#8000800000000800
(1790666270.227469) can1 006#8000800000000800
(1790666270.227469) can1 001#8000800000000800
(1790666270.227503) can1 002#8000800000000800
(1790666270.227544) can1 003#8000800000000800
(1790666270.228123) can0 011#0180607FF7FD1F1C
(1790666270.228235) can0 012#0281137FF7FB2D1E
(1790666270.228285) can1 011#017EC97FF801211B
(1790666270.228337) can0 013#0380377FF802211B
(1790666270.228389) can1 012#027F677FF7FB1F1B
(1790666270.228462) can0 014#04802F7FF8032A1E
(1790666270.228541) can1 013#037FFD7FF7F41E1A
(1790666270.228592) can0 015#057FD47FF7FC2E1D
(1790666270.228643) can1 014#04805D7FF7FC2B15
(1790666270.228695) can0 016#0680297FF802271B
(1790666270.228759) can1 015#057F4A7FF7FD1F1B
(1790666270.228863) can1 016#067FEB7FF805211A
(1790666270.235270) can0 004#8000800000000800
(1790666270.235309) can0 005#8000800000000800
(1790666270.235309) can0 006#8000800000000800
(1790666270.235310) can0 001#8000800000000800
(1790666270.235341) can0 002#8000800000000800
(1790666270.235389) can0 003#8000800000000800
(1790666270.235390) can1 004#8000800000000800
(1790666270.235391) can1 005#8000800000000800
(1790666270.235423) can1 006#8000800000000800
(1790666270.235462) can1 001#8000800000000800
(1790666270.235462) can1 002#8000800000000800
(1790666270.235505) can1 003#8000800000000800
(1790666270.236117) can0 011#0180607FF8001F1C
(1790666270.236213) can0 012#0281137FF7FA2D1E
(1790666270.236256) can1 011#017EC97FF800211B
(1790666270.236343) can0 013#0380377FF802211B
(1790666270.236387) can1 012#027F677FF7FB1F1B
(1790666270.236468) can0 014#04802F7FF8012A1E
(1790666270.236515) can1 013#037FFD7FF7FB1E1A
(1790666270.236577) can0 015#057FD47FF7FF2E1D
(1790666270.236613) can1 014#04805D7FF7FC2B15
(1790666270.236686) can0 016#0680297FF80A271B
(1790666270.236729) can1 015#057F4A7FE7FD1F1B
(1790666270.236832) can1 016#067FEB7FF801211A
(1790666270.243276) can0 004#8000800000000800
(1790666270.243282) can0 005#8000800000000800
(1790666270.243309) can0 006#8000800000000800
(1790666270.243309) can0 001#8000800000000800
(1790666270.243350) can0 002#8000800000000800
(1790666270.243393) can0 003#8000800000000800
(1790666270.243394) can1 004#8000800000000800
(1790666270.243395) can1 005#8000800000000800
(1790666270.243432) can1 006#8000800000000800
(1790666270.243432) can1 001#8000800000000800
(1790666270.243471) can1 002#8000800000000800
(1790666270.243511) can1 003#8000800000000800
(1790666270.244094) can0 011#0180607FF7FF1F1C
(1790666270.244186) can0 012#0281137FF7F72D1E
(1790666270.244263) can1 011#017EC97FF7FF211B
(1790666270.244315) can0 013#0380377FF806211B
(1790666270.244368) can1 012#027F677FF8001F1B
(1790666270.244445) can0 014#04802F7FF8002A1E
(1790666270.244491) can1 013#037FFD7FF7FC1E1A
(1790666270.244549) can0 015#057FD47FF7FD2E1D
(1790666270.244612) can1 014#04805D7FF7FD2B15
(1790666270.244661) can0 016#0680297FF7F3271B
(1790666270.244748) can1 015#057F4A7FF8031F1B
(1790666270.244863) can1 016#067FEB7FF7FE211A
(1790666270.251267) can0 004#8000800000000800
(1790666270.251290) can0 005#8000800000000800
(1790666270.251333) can0 006#8000800000000800
(1790666270.251333) can0 001#8000800000000800
(1790666270.251373) can0 002#8000800000000800
(1790666270.251374) can0 003#8000800000000800
(1790666270.251411) can1 004#8000800000000800
(1790666270.251453) can1 005#8000800000000800
(1790666270.251492) can1 006#8000800000000800
(1790666270.251493) can1 001#8000800000000800
(1790666270.251542) can1 002#8000800000000800
(1790666270.251544) can1 003#8000800000000800
(1790666270.252133) can0 011#0180607FF7FD1F1C
(1790666270.252219) can0 012#0281138008092D1E
(1790666270.252263) can1 011#017EC97FF7FF211B
(1790666270.252345) can0 013#0380377FF806211B
(1790666270.252388) can1 012#027F677FF7F31F1B
(1790666270.252466) can0 014#04802F7FF7F82A1E
(1790666270.252515) can1 013#037FFD7FF7FB1E1A
(1790666270.252570) can0 015#057FD47FF7FF2E1D
(1790666270.252614) can1 014#04805D7FF7FE2B15
(1790666270.252699) can0 016#0680297FF7EE271B
(1790666270.252743) can1 015#057F4A7FF8061F1B
(1790666270.252835) can1 016#067FEB7FF803211A
(1790666270.259250) can0 004#8000800000000800
(1790666270.259269) can0 005#8000800000000800
(1790666270.259314) can0 006#8000800000000800
(1790666270.259315) can0 001#8000800000000800
(1790666270.259350) can0 002#8000800000000800
(1790666270.259395) can0 003#8000800000000800
(1790666270.259396) can1 004#8000800000000800
(1790666270.259434) can1 005#8000800000000800
(1790666270.259435) can1 006#8000800000000800
(1790666270.259472) can1 001#8000800000000800
(1790666270.259473) can1 002#8000800000000800
(1790666270.259529) can1 003#8000800000000800
(1790666270.260081) can0 011#0180607FF8001F1C
(1790666270.260189) can0 012#0281137FE8022D1E
(1790666270.260267) can1 011#017EC97FF7FE211B
(1790666270.260318) can0 013#0380377FF807211B
(1790666270.260371) can1 012#027F677FF7FA1F1B
(1790666270.260449) can0 014#04802F7FF7FD2A1E
(1790666270.260508) can1 013#037FFD7FF8001E1A
(1790666270.260549) can0 015#057FD47FF7FA2E1D
(1790666270.260625) can1 014#04805D7FF7FE2B15
(1790666270.260676) can0 016#0680297FF7EA271B
(1790666270.260743) can1 015#057F4A7FF7F91F1B
(1790666270.260838) can1 016#067FEB7FF7FB211A
(1790666270.267277) can0 004#8000800000000800
(1790666270.267283) can0 005#8000800000000800
(1790666270.267311) can0 006#8000800000000800
(1790666270.267312) can0 001#8000800000000800
(1790666270.267352) can0 002#8000800000000800
(1790666270.267393) can0 003#8000800000000800
(1790666270.267393) can1 004#8000800000000800
(1790666270.267432) can1 005#8000800000000800
(1790666270.267432) can1 006#8000800000000800
(1790666270.267470) can1 001#8000800000000800
(1790666270.267471) can1 002#8000800000000800
(1790666270.267534) can1 003#8000800000000800
(1790666270.268097) can0 011#0180607FF8001F1C
(1790666270.268216) can0 012#0281137FF8012D1E
(1790666270.268269) can1 011#017EC97FF802211B
(1790666270.268319) can0 013#0380377FF801211B
(1790666270.268371) can1 012#027F677FF8091F1B
(1790666270.268449) can0 014#04802F7FF7FD2A1E
(1790666270.268494) can1 013#037FFD7FF7FD1E1A
(1790666270.268553) can0 015#057FD47FF7F82E1D
(1790666270.268616) can1 014#04805D7FF7FF2B15
(1790666270.268664) can0 016#0680297FF7FC271B
(1790666270.268717) can1 015#057F4A7FF7F31F1B
(1790666270.268836) can1 016#067FEB7FF7F4211A
(1790666270.275279) can0 004#8000800000000800
(1790666270.275285) can0 005#8000800000000800
(1790666270.275315) can0 006#8000800000000800
(1790666270.275316) can0 001#8000800000000800
(1790666270.275353) can0 002#8000800000000800
(1790666270.275394) can0 003#8000800000000800
(1790666270.275395) can1 004#8000800000000800
(1790666270.275434) can1 005#8000800000000800
(1790666270.275435) can1 006#8000800000000800
(1790666270.275474) can1 001#8000800000000800
(1790666270.275474) can1 002#8000800000000800
(1790666270.275517) can1 003#8000800000000800
(1790666270.276162) can0 011#0180607FF7FE1F1C
(1790666270.276198) can0 012#0281137FF7FD2D1E
(1790666270.276247) can1 011#017EC97FF7FD211B
(1790666270.276322) can0 013#0380377FF801211B
(1790666270.276373) can1 012#027F677FF7F61F1B
(1790666270.276448) can0 014#04802F7FF7FF2A1E
(1790666270.276513) can1 013#037FFD7FF8131E1A
(1790666270.276573) can0 015#057FD47FF7F72E1D
(1790666270.276623) can1 014#04805D7FF7FE2B15
(1790666270.276672) can0 016#0680297FF7FD271B
(1790666270.276723) can1 015#057F4A7FF7F81F1B
(1790666270.276840) can1 016#067FEB7FF7F6211A
(1790666270.283269) can0 004#8000800000000800
(1790666270.283306) can0 005#8000800000000800
(1790666270.283309) can0 006#8000800000000800
(1790666270.283338) can0 001#8000800000000800
(1790666270.283385) can0 002#8000800000000800
(1790666270.283425) can0 003#8000800000000800
(1790666270.283426) can1 004#8000800000000800
(1790666270.283427) can1 005#8000800000000800
(1790666270.283463) can1 006#8000800000000800
(1790666270.283464) can1 001#8000800000000800
(1790666270.283499) can1 002#8000800000000800
(1790666270.283542) can1 003#8000800000000800
(1790666270.284137) can0 011#0180607FF7FD1F1C
(1790666270.284222) can0 012#0281137FF8042D1E
(1790666270.284274) can1 011#017EC97FF801211B
(1790666270.284352) can0 013#0380377FF7F7211B
(1790666270.284404) can1 012#027F677FF7FF1F1B
(1790666270.284455) can0 014#04802F7FF8022A1E
(1790666270.284536) can1 013#037FFD7FF8121E1A
(1790666270.284584) can0 015#057FD47FF7FC2E1D
(1790666270.284643) can1 014#04805D7FF7FC2B15
(1790666270.284693) can0 016#0680297FF800271B
(1790666270.284771) can1 015#057F4A7FF8011F1B
(1790666270.284870) can1 016#067FEB7FF7F3211A
(1790666270.291285) can0 004#8000800000000800
(1790666270.291290) can0 005#8000800000000800
(1790666270.291318) can0 006#8000800000000800
(1790666270.291319) can0 001#8000800000000800
(1790666270.291359) can0 002#8000800000000800
(1790666270.291397) can0 003#8000800000000800
(1790666270.291398) can1 004#8000800000000800
(1790666270.291436) can1 005#8000800000000800
(1790666270.291436) can1 006#8000800000000800
(1790666270.291475) can1 001#8000800000000800
(1790666270.291476) can1 002#8000800000000800
(1790666270.291520) can1 003#8000800000000800
(1790666270.292101) can0 011#0180607FF7FC1F1C
(1790666270.292191) can0 012#0281137FF7FC2D1E
(1790666270.292269) can1 011#017EC97FF800211B
(1790666270.292322) can0 013#0380377FF7FF211B
(1790666270.292373) can1 012#027F677FF8001F1B
(1790666270.292451) can0 014#04802F7FF8062A1E
(1790666270.292497) can1 013#037FFD7FF8051E1A
(1790666270.292550) can0 015#057FD47FF7FE2E1D
(1790666270.292627) can1 014#04805D7FF7FB2C15
(1790666270.292680) can0 016#0680297FF7FD271B
(1790666270.292745) can1 015#057F4A7FF8101F1B
(1790666270.292869) can1 016#067FEB7FF7F8211A
(1790666270.299269) can0 004#8000800000000800
(1790666270.299306) can0 005#8000800000000800
(1790666270.299306) can0 006#8000800000000800
(1790666270.299346) can0 001#8000800000000800
(1790666270.299347) can0 002#8000800000000800
(1790666270.299393) can0 003#8000800000000800
(1790666270.299393) can1 004#8000800000000800
(1790666270.299427) can1 005#8000800000000800
(1790666270.299477) can1 006#8000800000000800
(1790666270.299477) can1 001#8000800000000800
(1790666270.299477) can1 002#8000800000000800
(1790666270.299504) can1 003#8000800000000800
(1790666270.300142) can0 011#0180607FF7FD1F1C
(1790666270.300220) can0 012#0281137FF8052D1E
(1790666270.300264) can1 011#017EC97FF804211B
(1790666270.300350) can0 013#0380377FF800211B
(1790666270.300395) can1 012#027F677FF8021F1B
(1790666270.300459) can0 014#04802F7FF8072A1E
(1790666270.300501) can1 013#037FFD7FF8121E1A
(1790666270.300579) can0 015#057FD47FF7FB2E1D
(1790666270.300619) can1 014#04805D7FF7FC2B15
(1790666270.300696) can0 016#0680297FF803271B
(1790666270.300742) can1 015#057F4A8008061F1B
(1790666270.300844) can1 016#067FEB7FF7FE211A
(1790666270.307217) can0 004#8000800000000800
(1790666270.307252) can0 005#8000800000000800
(1790666270.307379) can1 004#8000800000000800
(1790666270.307295) can0 006#8000800000000800
(1790666270.307379) can1 005#8000800000000800
(1790666270.307296) can0 001#8000800000000800
(1790666270.307335) can0 002#8000800000000800
(1790666270.307335) can0 003#8000800000000800
(1790666270.307419) can1 006#8000800000000800
(1790666270.307420) can1 001#8000800000000800
(1790666270.307453) can1 002#8000800000000800
(1790666270.307499) can1 003#8000800000000800
(1790666270.308061) can0 011#0180607FF7FE1F1C
(1790666270.308201) can0 012#0281137FF7FD2D1E
(1790666270.308238) can1 011#017EC97FF802211B
(1790666270.308299) can0 013#0380377FF7FA211B
(1790666270.308342) can1 012#027F677FF7F61F1B
(1790666270.308430) can0 014#04802F7FF7F82A1E
(1790666270.308478) can1 013#037FFD7FF7FF1E1A
(1790666270.308548) can0 015#057FD47FF7FB2E1D
(1790666270.308585) can1 014#04805D7FF7FE2B15
(1790666270.308657) can0 016#0680297FF801271B
(1790666270.308702) can1 015#057F4A7FF80D1F1B
(1790666270.308821) can1 016#067FEB7FF809211A
(1790666270.315283) can0 004#8000800000000800
(1790666270.315289) can0 005#8000800000000800
(1790666270.315318) can0 006#8000800000000800
(1790666270.315318) can0 001#8000800000000800
(1790666270.315358) can0 002#8000800000000800
(1790666270.315399) can0 003#8000800000000800
(1790666270.315405) can1 004#8000800000000800
(1790666270.315440) can1 005#8000800000000800
(1790666270.315440) can1 006#8000800000000800
(1790666270.315478) can1 001#8000800000000800
(1790666270.315525) can1 002#8000800000000800
(1790666270.315558) can1 003#8000800000000800
(1790666270.316085) can0 011#0180607FF8001F1C
(1790666270.316195) can0 012#0281137FF8002D1E
(1790666270.316274) can1 011#017EC97FF7FE211B
(1790666270.316325) can0 013#0380377FF7FB211B
(1790666270.316377) can1 012#027F677FF8151F1B
(1790666270.316455) can0 014#04802F7FF7F42A1E
(1790666270.316502) can1 013#037FFD7FF7F61E1A
(1790666270.316552) can0 015#057FD47FF7FD2E1D
(1790666270.316630) can1 014#04805D7FF7FD2B15
(1790666270.316682) can0 016#0680297FF7F6271B
(1790666270.316748) can1 015#057F4A7FF7F51F1B
(1790666270.316844) can1 016#067FEB7FF801211A
(1790666270.323280) can0 004#8000800000000800
(1790666270.323312) can0 005#8000800000000800
(1790666270.323313) can0 006#8000800000000800
(1790666270.323354) can0 001#8000800000000800
(1790666270.323355) can0 002#8000800000000800
(1790666270.323398) can0 003#8000800000000800
(1790666270.323399) can1 004#8000800000000800
(1790666270.323436) can1 005#8000800000000800
(1790666270.323436) can1 006#8000800000000800
(1790666270.323475) can1 001#8000800000000800
(1790666270.323523) can1 002#8000800000000800
(1790666270.323524) can1 003#8000800000000800
(1790666270.324146) can0 011#0180607FF7FD1F1C
(1790666270.324225) can0 012#0281137FF8052D1E
(1790666270.324268) can1 011#017EC97FF7FB211B
(1790666270.324355) can0 013#0380377FF805211B
(1790666270.324398) can1 012#027F677FF7FF1F1B
(1790666270.324458) can0 014#04802F7FF7F82A1E
(1790666270.324504) can1 013#037FFD7FF7F61E1A
(1790666270.324588) can0 015#057FD47FF7FB2E1D
(1790666270.324624) can1 014#04805D7FF7FD2B15
(1790666270.324699) can0 016#0680297FF7FE271B
(1790666270.324751) can1 015#057F4A7FF7F71F1B
(1790666270.324874) can1 016#067FEB7FF7FE211A
(1790666270.331219) can0 004#8000800000000800
(1790666270.331252) can0 005#8000800000000800
(1790666270.331296) can0 006#8000800000000800
(1790666270.331296) can0 001#8000800000000800
(1790666270.331335) can0 002#8000800000000800
(1790666270.331336) can0 003#8000800000000800
(1790666270.331378) can1 004#8000800000000800
(1790666270.331379) can1 005#8000800000000800
(1790666270.331416) can1 006#8000800000000800
(1790666270.331454) can1 001#8000800000000800
(1790666270.331454) can1 002#8000800000000800
(1790666270.331498) can1 003#8000800000000800
(1790666270.332083) can0 011#0180607FF7FE1F1C
(1790666270.332201) can0 012#0281137FF8012D1E
(1790666270.332236) can1 011#017EC97FF7FF211B
(1790666270.332317) can0 013#0380377FF807211B
(1790666270.332342) can1 012#027F678007F31F1B
(1790666270.332436) can0 014#04802F7FF80A2A1E
(1790666270.332470) can1 013#037FFD7FF7FC1E1A
(1790666270.332556) can0 015#057FD47FF7FB2E1D
(1790666270.332590) can1 014#04805D7FF8012B15
(1790666270.332661) can0 016#0680297FF802271B
(1790666270.332704) can1 015#057F4A7FF7F21F1B
(1790666270.332827) can1 016#067FEB7FF7FF211A
(1790666270.339270) can0 004#8000800000000800
(1790666270.339304) can0 005#8000800000000800
(1790666270.339422) can1 004#8000800000000800
(1790666270.339304) can0 006#8000800000000800
(1790666270.339424) can1 005#8000800000000800
(1790666270.339330) can0 001#8000800000000800
(1790666270.339458) can1 006#8000800000000800
(1790666270.339371) can0 002#8000800000000800
(1790666270.339459) can1 001#8000800000000800
(1790666270.339421) can0 003#8000800000000800
(1790666270.339502) can1 002#8000800000000800
(1790666270.339543) can1 003#8000800000000800
(1790666270.340147) can0 011#0180607FF7FD1F1C
(1790666270.340227) can0 012#0281137FF8022D1E
(1790666270.340276) can1 011#017EC97FF7FF211B
(1790666270.340328) can0 013#0380377FF806211B
(1790666270.340380) can1 012#027F677FF8081F1B
(1790666270.340456) can0 014#04802F7FF8012A1E
(1790666270.340503) can1 013#037FFD7FF7FB1E1A
(1790666270.340560) can0 015#057FD47FF7FC2E1D
(1790666270.340625) can1 014#04805D7FF7FE2B15
(1790666270.340700) can0 016#0680297FF808271B
(1790666270.340753) can1 015#057F4A7FF7F41F1B
(1790666270.340878) can1 016#067FEB7FF7FE211A
(1790666270.347230) can0 004#8000800000000800
(1790666270.347257) can0 005#8000800000000800
(1790666270.347301) can0 006#8000800000000800
(1790666270.347301) can0 001#8000800000000800
(1790666270.347344) can0 002#8000800000000800
(1790666270.347344) can0 003#8000800000000800
(1790666270.347380) can1 004#8000800000000800
(1790666270.347421) can1 005#8000800000000800
(1790666270.347421) can1 006#8000800000000800
(1790666270.347460) can1 001#8000800000000800
(1790666270.347504) can1 002#8000800000000800
(1790666270.347505) can1 003#8000800000000800
(1790666270.348082) can0 011#0180607FF7FE1F1C
(1790666270.348199) can0 012#0281137FF8062D1E
(1790666270.348242) can1 011#017EC97FF7FB211B
(1790666270.348303) can0 013#0380377FF800211B
(1790666270.348355) can1 012#027F677FF8091F1B
(1790666270.348433) can0 014#04802F7FF8042A1E
(1790666270.348476) can1 013#037FFD7FF7F51E1A
(1790666270.348554) can0 015#057FD47FF7FC2E1D
(1790666270.348589) can1 014#04805D7FF7FE2C15
(1790666270.348661) can0 016#0680297FF802271B
(1790666270.348713) can1 015#057F4A7FF7F31F1B
(1790666270.348825) can1 016#067FEB7FF7F6211A
(1790666270.355290) can0 004#8000800000000800
(1790666270.355295) can0 005#8000800000000800
(1790666270.355325) can0 006#8000800000000800
(1790666270.355326) can0 001#8000800000000800
(1790666270.355364) can0 002#8000800000000800
(1790666270.355407) can0 003#8000800000000800
(1790666270.355407) can1 004#8000800000000800
(1790666270.355445) can1 005#8000800000000800
(1790666270.355446) can1 006#8000800000000800
(1790666270.355484) can1 001#8000800000000800
(1790666270.355528) can1 002#8000800000000800
(1790666270.355566) can1 003#8000800000000800
(1790666270.356098) can0 011#0180607FF7FE1F1C
(1790666270.356229) can0 012#0281137FF8042D1E
(1790666270.356272) can1 011#017EC97FF7F9211B
(1790666270.356332) can0 013#0380377FF7FD211B
(1790666270.356384) can1 012#027F677FE7F41F1B
(1790666270.356462) can0 014#04802F7FF7F32A1E
(1790666270.356512) can1 013#037FFD7FF7FE1E1A
(1790666270.356566) can0 015#057FD47FF7FB2E1D
(1790666270.356630) can1 014#04805D7FF7FE2B15
(1790666270.356680) can0 016#0680297FF7FD271B
(1790666270.356757) can1 015#057F4A7FF7FB1F1B
(1790666270.356885) can1 016#067FEB7FF7FF211A
(1790666270.363249) can0 004#8000800000000800
(1790666270.363282) can0 005#8000800000000800
(1790666270.363283) can0 006#8000800000000800
(1790666270.363312) can0 001#8000800000000800
(1790666270.363355) can0 002#8000800000000800
(1790666270.363356) can0 003#8000800000000800
(1790666270.363399) can1 004#8000800000000800
(1790666270.363435) can1 005#8000800000000800
(1790666270.363436) can1 006#8000800000000800
(1790666270.363474) can1 001#8000800000000800
(1790666270.363517) can1 002#8000800000000800
(1790666270.363518) can1 003#8000800000000800
(1790666270.364088) can0 011#0180607FF8011F1C
(1790666270.364187) can0 012#0281137FF7F82D1E
(1790666270.364250) can1 011#017EC97FF802211B
(1790666270.364303) can0 013#0380377FF7FA211B
(1790666270.364355) can1 012#027F677FF7F41F1B
(1790666270.364431) can0 014#04802F7FF7FF2A1E
(1790666270.364483) can1 013#037FFD7FF7F91E1A
(1790666270.364563) can0 015#057FD47FF7FD2E1D
(1790666270.364606) can1 014#04805D7FF7FD2B15
(1790666270.364667) can0 016#0680297FF7FC271B
(1790666270.364716) can1 015#057F4A7FF8031F1B
(1790666270.364825) can1 016#067FEB7FF7FD211A
(1790666270.371292) can0 004#8000800000000800
(1790666270.371298) can0 005#8000800000000800
(1790666270.371319) can0 006#8000800000000800
(1790666270.371319) can0 001#8000800000000800
(1790666270.371350) can0 002#8000800000000800
(1790666270.371397) can0 003#8000800000000800
(1790666270.371437) can1 004#8000800000000800
(1790666270.371437) can1 005#8000800000000800
(1790666270.371438) can1 006#8000800000000800
(1790666270.371513) can1 001#8000800000000800
(1790666270.371513) can1 002#8000800000000800
(1790666270.371556) can1 003#8000800000000800
(1790666270.372152) can0 011#0180607FF7FE1F1C
(1790666270.372257) can0 012#0281137FF8012D1E
(1790666270.372300) can1 011#017EC97FF800211B
(1790666270.372361) can0 013#0380377FF7FA211B
(1790666270.372404) can1 012#027F677FF7F21F1B
(1790666270.372485) can0 014#04802F7FF8022A1E
(1790666270.372531) can1 013#037FFD7FF7FB1E1A
(1790666270.372594) can0 015#057FD47FF7FC2E1D
(1790666270.372631) can1 014#04805D7FF7FD2C15
(1790666270.372705) can0 016#0680297FF802271B
(1790666270.372750) can1 015#057F4A7FF7F81F1B
(1790666270.372851) can1 016#067FEB7FF7FE211A
(1790666270.379304) can0 004#8000800000000800
(1790666270.379346) can0 005#8000800000000800
(1790666270.379347) can0 006#8000800000000800
(1790666270.379377) can0 001#8000800000000800
(1790666270.379425) can0 002#8000800000000800
(1790666270.379425) can0 003#8000800000000800
(1790666270.379523) can1 004#8000800000000800
(1790666270.379526) can1 005#8000800000000800
(1790666270.379527) can1 006#8000800000000800
(1790666270.379527) can1 001#8000800000000800
(1790666270.379537) can1 002#8000800000000800
(1790666270.379583) can1 003#8000800000000800
(1790666270.380176) can0 011#0180607FF7FC1F1C
(1790666270.380257) can0 012#0281137FF8022D1E
(1790666270.380310) can1 011#017EC97FF801211B
(1790666270.380387) can0 013#0380377FF7FE211B
(1790666270.380438) can1 012#027F677FF7F51F1B
(1790666270.380517) can0 014#04802F7FF7EF2A1E
(1790666270.380543) can1 013#037FFD7FF7F21E1A
(1790666270.380616) can0 015#057FD47FF7FB2E1D
(1790666270.380655) can1 014#04805D7FF8002B15
(1790666270.380734) can0 016#0680297FF801271B
(1790666270.380787) can1 015#057F4A7FE7EA1F1B
(1790666270.380910) can1 016#067FEB7FF7FE211A
(1790666270.387231) can0 004#8000800000000800
(1790666270.387262) can0 005#8000800000000800
(1790666270.387307) can0 006#8000800000000800
(1790666270.387308) can0 001#8000800000000800
(1790666270.387347) can0 002#8000800000000800
(1790666270.387348) can0 003#8000800000000800
(1790666270.387390) can1 004#8000800000000800
(1790666270.387395) can1 005#8000800000000800
(1790666270.387431) can1 006#8000800000000800
(1790666270.387432) can1 001#8000800000000800
(1790666270.387461) can1 002#8000800000000800
(1790666270.387519) can1 003#8000800000000800
(1790666270.388073) can0 011#0180607FF7FD1F1C
(1790666270.388192) can0 012#0281137FF8042D1E
(1790666270.388239) can1 011#017EC97FF7FB211B
(1790666270.388315) can0 013#0380377FF800211B
(1790666270.388358) can1 012#027F677FF8021F1B
(1790666270.388438) can0 014#04802F7FF7FE2A1E
(1790666270.388502) can1 013#037FFD7FF7F41E1A
(1790666270.388560) can0 015#057FD47FF7FC2E1D
(1790666270.388595) can1 014#04805D7FF7FD2B15
(1790666270.388654) can0 016#0680297FF7EE271B
(1790666270.388704) can1 015#057F4A7FF8021F1B
(1790666270.388834) can1 016#067FEB7FF806211A
(1790666270.395292) can0 004#8000800000000800
(1790666270.395320) can0 005#8000800000000800
(1790666270.395321) can0 006#8000800000000800
(1790666270.395363) can0 001#8000800000000800
(1790666270.395363) can0 002#8000800000000800
(1790666270.395399) can0 003#8000800000000800
(1790666270.395442) can1 004#8000800000000800
(1790666270.395443) can1 005#8000800000000800
(1790666270.395481) can1 006#8000800000000800
(1790666270.395482) can1 001#8000800000000800
(1790666270.395555) can1 002#8000800000000800
(1790666270.395559) can1 003#8000800000000800
(1790666270.396154) can0 011#0180607FF7FF1F1C
(1790666270.396234) can0 012#0281137FF8032D1E
(1790666270.396278) can1 011#017EC97FF800211B
(1790666270.396364) can0 013#0380377FF807211B
(1790666270.396408) can1 012#027F677FF80D1F1B
(1790666270.396489) can0 014#04802F7FF8022A1E
(1790666270.396536) can1 013#037FFD7FF7EC1E1A
(1790666270.396592) can0 015#057FD47FF8002E1D
(1790666270.396633) can1 014#04805D7FF7FC2B15
(1790666270.396708) can0 016#0680297FF7E8271B
(1790666270.396760) can1 015#057F4A7FF7FB1F1B
(1790666270.396854) can1 016#067FEB7FF7F3211A
(1790666270.403311) can0 004#8000800000000800
(1790666270.403316) can0 005#8000800000000800
(1790666270.403346) can0 006#8000800000000800
(1790666270.403347) can0 001#8000800000000800
(1790666270.403390) can0 002#8000800000000800
(1790666270.403390) can0 003#8000800000000800
(1790666270.403427) can1 004#8000800000000800
(1790666270.403477) can1 005#8000800000000800
(1790666270.403477) can1 006#8000800000000800
(1790666270.403478) can1 001#8000800000000800
(1790666270.403509) can1 002#8000800000000800
(1790666270.403552) can1 003#8000800000000800
(1790666270.404137) can0 011#0180607FF7FE1F1C
(1790666270.404237) can0 012#0281137FF7FD2D1E
(1790666270.404289) can1 011#017EC97FF7FB211B
(1790666270.404366) can0 013#0380377FF7FE211B
(1790666270.404409) can1 012#027F677FF8051F1B
(1790666270.404470) can0 014#04802F7FF8022A1E
(1790666270.404522) can1 013#037FFD7FF7F31E1A
(1790666270.404601) can0 015#057FD47FF7FE2E1D
(1790666270.404637) can1 014#04805D7FF7FE2B15
(1790666270.404710) can0 016#0680297FF7F5271B
(1790666270.404764) can1 015#057F4A7FF7EC1F1B
(1790666270.404886) can1 016#067FEB7FF7F6211A
(1790666270.411257) can0 004#8000800000000800
(1790666270.411297) can0 005#8000800000000800
(1790666270.411298) can0 006#8000800000000800
(1790666270.411337) can0 001#8000800000000800
(1790666270.411338) can0 002#8000800000000800
(1790666270.411375) can0 003#8000800000000800
(1790666270.411417) can1 004#8000800000000800
(1790666270.411418) can1 005#8000800000000800
(1790666270.411461) can1 006#8000800000000800
(1790666270.411461) can1 001#8000800000000800
(1790666270.411462) can1 002#8000800000000800
(1790666270.411554) can1 003#8000800000000800
(1790666270.412101) can0 011#0180607FF7FD1F1C
(1790666270.412239) can0 012#0281137FF8082D1E
(1790666270.412340) can0 013#0380377FF806211B
(1790666270.412273) can1 011#017EC97FF803211B
(1790666270.412383) can1 012#027F677FF7FF1F1B
(1790666270.412471) can0 014#04802F7FF8022A1E
(1790666270.412506) can1 013#037FFD7FF7F91E1A
(1790666270.412595) can0 015#057FD47FF7FC2E1D
(1790666270.412596) can1 014#04805D7FF7FE2B15
(1790666270.412694) can0 016#0680297FF7F8271B
(1790666270.412730) can1 015#057F4A7FF7F51F1B
(1790666270.412840) can1 016#067FEB7FF800211A
(1790666270.419280) can0 004#8000800000000800
(1790666270.419296) can0 005#8000800000000800
(1790666270.419337) can0 006#8000800000000800
(1790666270.419337) can0 001#8000800000000800
(1790666270.419375) can0 002#8000800000000800
(1790666270.419419) can0 003#8000800000000800
(1790666270.419420) can1 004#8000800000000800
(1790666270.419455) can1 005#8000800000000800
(1790666270.419456) can1 006#8000800000000800
(1790666270.419494) can1 001#8000800000000800
(1790666270.419495) can1 002#8000800000000800
(1790666270.419542) can1 003#8000800000000800
(1790666270.420120) can0 011#0180607FF7FD1F1C
(1790666270.420210) can0 012#0281137FE8012D1E
(1790666270.420287) can1 011#017EC97FF7FF211B
(1790666270.420339) can0 013#0380377FF7FA211B
(1790666270.420391) can1 012#027F677FF7FF1F1B
(1790666270.420470) can0 014#04802F7FF7FF2A1E
(1790666270.420518) can1 013#037FFD7FF8021E1A
(1790666270.420573) can0 015#057FD47FF8002E1D
(1790666270.420636) can1 014#04805D7FF7FD2C15
(1790666270.420686) can0 016#0680297FF7F8271B
(1790666270.420764) can1 015#057F4A7FF8001F1B
(1790666270.420887) can1 016#067FEB7FF80E211A
(1790666270.427246) can0 004#8000800000000800
(1790666270.427267) can0 005#8000800000000800
(1790666270.427311) can0 006#8000800000000800
(1790666270.427313) can0 001#8000800000000800
(1790666270.427351) can0 002#8000800000000800
(1790666270.427352) can0 003#8000800000000800
(1790666270.427394) can1 004#8000800000000800
(1790666270.427395) can1 005#8000800000000800
(1790666270.427435) can1 006#8000800000000800
(1790666270.427436) can1 001#8000800000000800
(1790666270.427466) can1 002#8000800000000800
(1790666270.427510) can1 003#8000800000000800
(1790666270.428074) can0 011#0180607FF7FE1F1C
(1790666270.428210) can0 012#0281137FF8012D1E
(1790666270.428254) can1 011#017EC97FF800211B
(1790666270.428316) can0 013#0380377FF802211B
(1790666270.428365) can1 012#027F677FF7FF1F1B
(1790666270.428440) can0 014#04802F7FF7FB2A1E
(1790666270.428477) can1 013#037FFD7FF8061E1A
(1790666270.428571) can0 015#057FD47FF7FD2E1D
(1790666270.428614) can1 014#04805D7FF7FE2B15
(1790666270.428665) can0 016#0680297FF7FD271B
(1790666270.428718) can1 015#057F4A7FF8031F1B
(1790666270.428821) can1 016#067FEB7FF7F6211A
(1790666270.435241) can0 004#8000800000000800
(1790666270.435270) can0 005#8000800000000800
(1790666270.435316) can0 006#8000800000000800
(1790666270.435316) can0 001#8000800000000800
(1790666270.435354) can0 002#8000800000000800
(1790666270.435355) can0 003#8000800000000800
(1790666270.435401) can1 004#8000800000000800
(1790666270.435403) can1 005#8000800000000800
(1790666270.435438) can1 006#8000800000000800
(1790666270.435440) can1 001#8000800000000800
(1790666270.435469) can1 002#8000800000000800
(1790666270.435520) can1 003#8000800000000800
(1790666270.436100) can0 011#0180607FF7FE1F1C
(1790666270.436222) can0 012#0281137FF8062D1E
(1790666270.436262) can1 011#017EC97FF800211B
(1790666270.436325) can0 013#0380377FF802211B
(1790666270.436377) can1 012#027F677FF7FC1F1B
(1790666270.436455) can0 014#04802F7FF8002A1E
(1790666270.436494) can1 013#037FFD7FF7FC1E1A
(1790666270.436576) can0 015#057FD47FF7FE2E1D
(1790666270.436613) can1 014#04805D7FF7FD2C15
(1790666270.436687) can0 016#0680297FF7F7271B
(1790666270.436735) can1 015#057F4A7FF8031F1B
(1790666270.436845) can1 016#067FEB7FF7FC211A
(1790666270.443308) can0 004#8000800000000800
(1790666270.443316) can0 005#8000800000000800
(1790666270.443342) can0 006#8000800000000800
(1790666270.443343) can0 001#8000800000000800
(1790666270.443382) can0 002#8000800000000800
(1790666270.443421) can1 004#8000800000000800
(1790666270.443420) can0 003#8000800000000800
(1790666270.443461) can1 005#8000800000000800
(1790666270.443462) can1 006#8000800000000800
(1790666270.443499) can1 001#8000800000000800
(1790666270.443500) can1 002#8000800000000800
(1790666270.443543) can1 003#8000800000000800
(1790666270.444123) can0 011#0180607FF7FE1F1C
(1790666270.444240) can0 012#0281137FF8012D1E
(1790666270.444291) can1 011#017EC97FF801211B
(1790666270.444343) can0 013#0380377FF802211B
(1790666270.444395) can1 012#027F677FF7FB1F1B
(1790666270.444473) can0 014#04802F7FF7FB2A1E
(1790666270.444520) can1 013#037FFD7FF7FB1E1A
(1790666270.444598) can0 015#057FD47FF7FE2E1D
(1790666270.444650) can1 014#04805D7FF7FC2C15
(1790666270.444702) can0 016#0680297FF7FD271B
(1790666270.444766) can1 015#057F4A7FF8091F1B
(1790666270.444892) can1 016#067FEB7FF800211A
(1790666270.451302) can0 004#8000800000000800
(1790666270.451307) can0 005#8000800000000800
(1790666270.451338) can0 006#8000800000000800
(1790666270.451338) can0 001#8000800000000800
(1790666270.451379) can0 002#8000800000000800
(1790666270.451419) can0 003#8000800000000800
(1790666270.451420) can1 004#8000800000000800
(1790666270.451459) can1 005#8000800000000800
(1790666270.451460) can1 006#8000800000000800
(1790666270.451498) can1 001#8000800000000800
(1790666270.451541) can1 002#8000800000000800
(1790666270.451578) can1 003#8000800000000800
(1790666270.452102) can0 011#0180607FF7FF1F1C
(1790666270.452216) can0 012#0281137FF7EE2D1E
(1790666270.452293) can1 011#017EC97FF7FF211B
(1790666270.452345) can0 013#0380377FF802211B
(1790666270.452397) can1 012#027F677FF7FD1F1B
(1790666270.452477) can0 014#04802F7FF7F72A1E
(1790666270.452522) can1 013#037FFD7FF8071E1A
